! TOUCHSTONE file generated by CST MICROWAVE STUDIO
! Date and time: Fri Feb  2 21:30:06 2024
! Project name: material_prueba.cst
! Header version: 2018
! Port assignment regex: !\s*Touchstone port\s*([0-9]+)\s*=\s*(CST MWS port|CST DS port)\s*([0-9]+|Zmin|Zmax)\s*\(\"(.*)\"\)(\s*mode\s*([0-9]+))?.*
! Touchstone port assignment:
! Touchstone port 1 = CST MWS port 1 ("")
! Touchstone port 2 = CST MWS port 2 ("")
# GHz S MA R 376.7
75                      0.312689        -160.136         0.949856         109.869         0.949856         109.869         0.312689        -160.127
75.035                  0.312913         -160.58         0.949781         109.423         0.949781         109.423         0.312913        -160.572
75.07                   0.313136        -161.025         0.949706         108.976         0.949706         108.976         0.313136        -161.016
75.105                  0.313359         -161.47         0.949632          108.53         0.949632          108.53         0.313358        -161.461
75.14                    0.31358        -161.914         0.949559         108.084         0.949559         108.084         0.313579        -161.906
75.175                    0.3138        -162.359         0.949485         107.638         0.949485         107.638         0.313799        -162.351
75.21                   0.314019        -162.804         0.949412         107.192         0.949412         107.192         0.314018        -162.796
75.245                  0.314237        -163.249         0.949339         106.746         0.949339         106.746         0.314235        -163.241
75.28                   0.314454        -163.694         0.949267           106.3         0.949267           106.3         0.314452        -163.686
75.315                  0.314669        -164.139         0.949195         105.853         0.949195         105.853         0.314667        -164.131
75.35                   0.314884        -164.584         0.949123         105.407         0.949123         105.407         0.314882        -164.576
75.385                  0.315098         -165.03         0.949052         104.961         0.949052         104.961         0.315095        -165.021
75.42                    0.31531        -165.475         0.948981         104.515         0.948981         104.515         0.315307        -165.466
75.455                  0.315521         -165.92          0.94891         104.068          0.94891         104.068         0.315519        -165.912
75.49                   0.315731        -166.365          0.94884         103.622          0.94884         103.622         0.315729        -166.357
75.525                  0.315941        -166.811          0.94877         103.176          0.94877         103.176         0.315938        -166.802
75.56                   0.316149        -167.256           0.9487          102.73           0.9487          102.73         0.316145        -167.248
75.595                  0.316355        -167.702         0.948631         102.283         0.948631         102.283         0.316352        -167.693
75.63                   0.316561        -168.147         0.948562         101.837         0.948562         101.837         0.316558        -168.139
75.665                  0.316766        -168.593         0.948493         101.391         0.948493         101.391         0.316762        -168.584
75.7                    0.316969        -169.038         0.948425         100.945         0.948425         100.945         0.316965         -169.03
75.735                  0.317171        -169.484         0.948357         100.498         0.948357         100.498         0.317168        -169.476
75.77                   0.317373        -169.929         0.948289         100.052         0.948289         100.052         0.317369        -169.921
75.805                  0.317573        -170.375         0.948222         99.6057         0.948222         99.6057         0.317569        -170.367
75.84                   0.317771        -170.821         0.948155         99.1594         0.948155         99.1594         0.317767        -170.813
75.875                  0.317969        -171.267         0.948089         98.7131         0.948089         98.7131         0.317965        -171.259
75.91                   0.318166        -171.712         0.948023         98.2667         0.948023         98.2667         0.318161        -171.704
75.945                  0.318361        -172.158         0.947957         97.8204         0.947957         97.8204         0.318357         -172.15
75.98                   0.318555        -172.604         0.947892         97.3741         0.947892         97.3741         0.318551        -172.596
76.015                  0.318749         -173.05         0.947826         96.9278         0.947826         96.9278         0.318744        -173.042
76.05                    0.31894        -173.496         0.947762         96.4814         0.947762         96.4814         0.318936        -173.488
76.085                  0.319131        -173.942         0.947698         96.0351         0.947698         96.0351         0.319127        -173.934
76.12                   0.319321        -174.388         0.947634         95.5888         0.947634         95.5888         0.319316         -174.38
76.155                  0.319509        -174.834          0.94757         95.1424          0.94757         95.1424         0.319504        -174.826
76.19                   0.319697         -175.28         0.947507         94.6961         0.947507         94.6961         0.319692        -175.272
76.225                  0.319883        -175.726         0.947444         94.2498         0.947444         94.2498         0.319878        -175.718
76.26                   0.320067        -176.172         0.947382         93.8034         0.947382         93.8034         0.320063        -176.164
76.295                  0.320251        -176.618          0.94732         93.3571          0.94732         93.3571         0.320246         -176.61
76.33                   0.320434        -177.064         0.947258         92.9108         0.947258         92.9108         0.320429        -177.057
76.365                  0.320615         -177.51         0.947196         92.4644         0.947196         92.4644          0.32061        -177.503
76.4                    0.320795        -177.956         0.947136         92.0181         0.947136         92.0181          0.32079        -177.949
76.435                  0.320974        -178.402         0.947075         91.5718         0.947075         91.5718         0.320969        -178.395
76.47                   0.321152        -178.849         0.947015         91.1254         0.947015         91.1254         0.321147        -178.842
76.505                  0.321329        -179.295         0.946955         90.6791         0.946955         90.6791         0.321323        -179.288
76.54                   0.321504        -179.741         0.946895         90.2328         0.946895         90.2328         0.321499        -179.734
76.575                  0.321678         179.813         0.946836         89.7865         0.946836         89.7865         0.321673          179.82
76.61                   0.321851         179.366         0.946778         89.3401         0.946778         89.3401         0.321846         179.373
76.645                  0.322023          178.92         0.946719         88.8938         0.946719         88.8938         0.322018         178.927
76.68                   0.322193         178.474         0.946662         88.4475         0.946662         88.4475         0.322188         178.481
76.715                  0.322363         178.027         0.946604         88.0012         0.946604         88.0012         0.322358         178.034
76.75                   0.322531         177.581         0.946547         87.5549         0.946547         87.5549         0.322526         177.588
76.785                  0.322698         177.135          0.94649         87.1086          0.94649         87.1086         0.322693         177.141
76.82                   0.322864         176.688         0.946434         86.6623         0.946434         86.6623         0.322858         176.695
76.855                  0.323028         176.242         0.946378          86.216         0.946378          86.216         0.323023         176.249
76.89                   0.323191         175.796         0.946322         85.7697         0.946322         85.7697         0.323186         175.802
76.925                  0.323353         175.349         0.946267         85.3234         0.946267         85.3234         0.323348         175.356
76.96                   0.323514         174.903         0.946212         84.8772         0.946212         84.8772         0.323509         174.909
76.995                  0.323674         174.457         0.946158         84.4309         0.946158         84.4309         0.323669         174.463
77.03                   0.323832          174.01         0.946104         83.9846         0.946104         83.9846         0.323827         174.016
77.065                  0.323989         173.564          0.94605         83.5383          0.94605         83.5383         0.323984          173.57
77.1                    0.324145         173.117         0.945997         83.0921         0.945997         83.0921          0.32414         173.123
77.135                    0.3243         172.671         0.945944         82.6458         0.945944         82.6458         0.324295         172.677
77.17                   0.324454         172.224         0.945892         82.1996         0.945892         82.1996         0.324449          172.23
77.205                  0.324606         171.778          0.94584         81.7534          0.94584         81.7534         0.324601         171.784
77.24                   0.324757         171.331         0.945788         81.3071         0.945788         81.3071         0.324752         171.337
77.275                  0.324907         170.885         0.945737         80.8609         0.945737         80.8609         0.324902         170.891
77.31                   0.325055         170.439         0.945686         80.4147         0.945686         80.4147         0.325051         170.444
77.345                  0.325203         169.992         0.945635         79.9685         0.945635         79.9685         0.325198         169.998
77.38                   0.325349         169.546         0.945585         79.5223         0.945585         79.5223         0.325344         169.551
77.415                  0.325494         169.099         0.945536         79.0761         0.945536         79.0761         0.325489         169.104
77.45                   0.325637         168.653         0.945486         78.6299         0.945486         78.6299         0.325633         168.658
77.485                   0.32578         168.206         0.945438         78.1837         0.945438         78.1837         0.325775         168.211
77.52                   0.325921          167.76         0.945389         77.7375         0.945389         77.7375         0.325916         167.765
77.555                  0.326061         167.313         0.945341         77.2914         0.945341         77.2914         0.326056         167.318
77.59                   0.326199         166.867         0.945294         76.8452         0.945294         76.8452         0.326195         166.872
77.625                  0.326337          166.42         0.945246         76.3991         0.945246         76.3991         0.326332         166.425
77.66                   0.326473         165.974           0.9452         75.9529           0.9452         75.9529         0.326469         165.979
77.695                  0.326608         165.527         0.945153         75.5068         0.945153         75.5068         0.326604         165.532
77.73                   0.326741         165.081         0.945107         75.0607         0.945107         75.0607         0.326737         165.086
77.765                  0.326874         164.634         0.945062         74.6145         0.945062         74.6145          0.32687         164.639
77.8                    0.327005         164.188         0.945016         74.1684         0.945016         74.1684         0.327001         164.192
77.835                  0.327135         163.742         0.944972         73.7223         0.944972         73.7223         0.327131         163.746
77.87                   0.327264         163.295         0.944927         73.2762         0.944927         73.2762          0.32726         163.299
77.905                  0.327391         162.849         0.944883         72.8302         0.944883         72.8302         0.327387         162.853
77.94                   0.327517         162.402          0.94484         72.3841          0.94484         72.3841         0.327514         162.406
77.975                  0.327642         161.956         0.944797          71.938         0.944797          71.938         0.327639          161.96
78.01                   0.327766         161.509         0.944754          71.492         0.944754          71.492         0.327762         161.513
78.045                  0.327888         161.063         0.944712         71.0459         0.944712         71.0459         0.327885         161.067
78.08                    0.32801         160.616          0.94467         70.5999          0.94467         70.5999         0.328006          160.62
78.115                  0.328129          160.17         0.944628         70.1539         0.944628         70.1539         0.328126         160.174
78.15                   0.328248         159.724         0.944587         69.7079         0.944587         69.7079         0.328245         159.727
78.185                  0.328366         159.277         0.944547         69.2618         0.944547         69.2618         0.328362         159.281
78.22                   0.328482         158.831         0.944506         68.8158         0.944506         68.8158         0.328479         158.834
78.255                  0.328597         158.384         0.944467         68.3699         0.944467         68.3699         0.328594         158.388
78.29                    0.32871         157.938         0.944427         67.9239         0.944427         67.9239         0.328707         157.941
78.325                  0.328823         157.492         0.944388         67.4779         0.944388         67.4779          0.32882         157.495
78.36                   0.328934         157.045          0.94435         67.0319          0.94435         67.0319         0.328931         157.048
78.395                  0.329044         156.599         0.944312          66.586         0.944312          66.586         0.329041         156.602
78.43                   0.329152         156.153         0.944274         66.1401         0.944274         66.1401          0.32915         156.156
78.465                   0.32926         155.706         0.944237         65.6941         0.944237         65.6941         0.329257         155.709
78.5                    0.329366          155.26           0.9442         65.2482           0.9442         65.2482         0.329363         155.263
78.535                  0.329471         154.814         0.944163         64.8023         0.944163         64.8023         0.329468         154.816
78.57                   0.329574         154.367         0.944127         64.3564         0.944127         64.3564         0.329572          154.37
78.605                  0.329677         153.921         0.944092         63.9105         0.944092         63.9105         0.329674         153.924
78.64                   0.329778         153.475         0.944057         63.4646         0.944057         63.4646         0.329776         153.477
78.675                  0.329878         153.028         0.944022         63.0187         0.944022         63.0187         0.329876         153.031
78.71                   0.329976         152.582         0.943987         62.5729         0.943987         62.5729         0.329974         152.584
78.745                  0.330073         152.136         0.943954          62.127         0.943954          62.127         0.330072         152.138
78.78                   0.330169          151.69          0.94392         61.6812          0.94392         61.6812         0.330168         151.692
78.815                  0.330264         151.243         0.943887         61.2354         0.943887         61.2354         0.330263         151.245
78.85                   0.330358         150.797         0.943854         60.7895         0.943854         60.7895         0.330356         150.799
78.885                   0.33045         150.351         0.943822         60.3437         0.943822         60.3437         0.330449         150.353
78.92                   0.330541         149.905          0.94379         59.8979          0.94379         59.8979          0.33054         149.907
78.955                  0.330631         149.459         0.943759         59.4521         0.943759         59.4521         0.330629          149.46
78.99                   0.330719         149.012         0.943728         59.0063         0.943728         59.0063         0.330718         149.014
79.025                  0.330807         148.566         0.943698         58.5606         0.943698         58.5606         0.330805         148.568
79.06                   0.330893          148.12         0.943668         58.1148         0.943668         58.1148         0.330891         148.121
79.095                  0.330977         147.674         0.943638          57.669         0.943638          57.669         0.330976         147.675
79.13                   0.331061         147.228         0.943609         57.2233         0.943609         57.2233          0.33106         147.229
79.165                  0.331143         146.782          0.94358         56.7775          0.94358         56.7775         0.331142         146.783
79.2                    0.331224         146.336         0.943552         56.3318         0.943552         56.3318         0.331223         146.337
79.235                  0.331304          145.89         0.943524         55.8861         0.943524         55.8861         0.331303          145.89
79.27                   0.331382         145.444         0.943496         55.4404         0.943496         55.4404         0.331381         145.444
79.305                  0.331459         144.997         0.943469         54.9947         0.943469         54.9947         0.331459         144.998
79.34                   0.331535         144.551         0.943443          54.549         0.943443          54.549         0.331535         144.552
79.375                   0.33161         144.105         0.943416         54.1033         0.943416         54.1033         0.331609         144.106
79.41                   0.331683         143.659         0.943391         53.6576         0.943391         53.6576         0.331683          143.66
79.445                  0.331755         143.213         0.943365          53.212         0.943365          53.212         0.331755         143.214
79.48                   0.331826         142.767          0.94334         52.7663          0.94334         52.7663         0.331826         142.768
79.515                  0.331896         142.321         0.943316         52.3207         0.943316         52.3207         0.331896         142.321
79.55                   0.331964         141.875         0.943292          51.875         0.943292          51.875         0.331964         141.875
