! TOUCHSTONE file generated by CST MICROWAVE STUDIO
! Date and time: Fri Feb 16 12:03:50 2024
! Project name: material_rotado.cst
! Parameters = {angX=1.25; angY=0.75}
! Header version: 2018
! Port assignment regex: !\s*Touchstone port\s*([0-9]+)\s*=\s*(CST MWS port|CST DS port)\s*([0-9]+|Zmin|Zmax)\s*\(\"(.*)\"\)(\s*mode\s*([0-9]+))?.*
! Touchstone port assignment:
! Touchstone port 1 = CST MWS port 1 ("")
! Touchstone port 2 = CST MWS port 2 ("")
# GHz S MA R 376.7
75                       0.29384        -155.959         0.955855         114.029         0.955855         114.029          0.29384        -155.983
75.035                  0.293912        -156.055         0.955821          113.93         0.955821          113.93         0.293911        -156.079
75.07                   0.293985        -156.151         0.955789          113.83         0.955789          113.83         0.293984        -156.176
75.105                   0.29406        -156.249         0.955757         113.729         0.955757         113.729         0.294058        -156.274
75.14                   0.294137        -156.346         0.955726         113.628         0.955726         113.628         0.294135        -156.372
75.175                  0.294215        -156.445         0.955695         113.527         0.955695         113.527         0.294213        -156.471
75.21                   0.294295        -156.544         0.955665         113.425         0.955665         113.425         0.294293         -156.57
75.245                  0.294378        -156.644         0.955634         113.323         0.955634         113.323         0.294375         -156.67
75.28                   0.294462        -156.744         0.955605         113.221         0.955605         113.221          0.29446        -156.771
75.315                  0.294548        -156.845         0.955575         113.118         0.955575         113.118         0.294546        -156.872
75.35                   0.294636        -156.947         0.955545         113.015         0.955545         113.015         0.294635        -156.973
75.385                  0.294727        -157.049         0.955515         112.911         0.955515         112.911         0.294726        -157.076
75.42                    0.29482        -157.152         0.955485         112.807         0.955485         112.807         0.294819        -157.178
75.455                  0.294916        -157.256         0.955455         112.703         0.955455         112.703         0.294915        -157.282
75.49                   0.295014         -157.36         0.955425         112.598         0.955425         112.598         0.295014        -157.385
75.525                  0.295115        -157.464         0.955394         112.493         0.955394         112.493         0.295115         -157.49
75.56                   0.295218         -157.57         0.955363         112.388         0.955363         112.388         0.295219        -157.595
75.595                  0.295324        -157.675         0.955332         112.282         0.955332         112.282         0.295325          -157.7
75.63                   0.295433        -157.782           0.9553         112.176           0.9553         112.176         0.295435        -157.806
75.665                  0.295544        -157.889         0.955267          112.07         0.955267          112.07         0.295547        -157.912
75.7                    0.295659        -157.996         0.955234         111.963         0.955234         111.963         0.295662        -158.019
75.735                  0.295777        -158.104           0.9552         111.856           0.9552         111.856          0.29578        -158.126
75.77                   0.295897        -158.213         0.955165         111.749         0.955165         111.749         0.295901        -158.234
75.805                  0.296021        -158.322          0.95513         111.641          0.95513         111.641         0.296025        -158.342
75.84                   0.296148        -158.431         0.955094         111.533         0.955094         111.533         0.296153        -158.451
75.875                  0.296279        -158.541         0.955057         111.425         0.955057         111.425         0.296283         -158.56
75.91                   0.296412        -158.651         0.955019         111.316         0.955019         111.316         0.296417        -158.669
75.945                  0.296549        -158.762          0.95498         111.208          0.95498         111.208         0.296554        -158.779
75.98                   0.296689        -158.873         0.954939         111.098         0.954939         111.098         0.296694         -158.89
76.015                  0.296833        -158.985         0.954898         110.989         0.954898         110.989         0.296838            -159
76.05                    0.29698        -159.097         0.954856         110.879         0.954856         110.879         0.296985        -159.111
76.085                  0.297131        -159.209         0.954813         110.769         0.954813         110.769         0.297135        -159.223
76.12                   0.297285        -159.322         0.954768         110.659         0.954768         110.659         0.297289        -159.334
76.155                  0.297443        -159.435         0.954723         110.549         0.954723         110.549         0.297447        -159.446
76.19                   0.297605        -159.548         0.954676         110.438         0.954676         110.438         0.297608        -159.559
76.225                   0.29777        -159.662         0.954628         110.327         0.954628         110.327         0.297772        -159.671
76.26                   0.297938        -159.775         0.954579         110.216         0.954579         110.216          0.29794        -159.784
76.295                  0.298111         -159.89         0.954528         110.104         0.954528         110.104         0.298111        -159.897
76.33                   0.298287        -160.004         0.954476         109.993         0.954476         109.993         0.298287        -160.011
76.365                  0.298466        -160.119         0.954423         109.881         0.954423         109.881         0.298465        -160.125
76.4                    0.298649        -160.233         0.954369         109.769         0.954369         109.769         0.298647        -160.238
76.435                  0.298836        -160.348         0.954313         109.656         0.954313         109.656         0.298833        -160.352
76.47                   0.299026        -160.464         0.954256         109.544         0.954256         109.544         0.299022        -160.467
76.505                   0.29922        -160.579         0.954198         109.431         0.954198         109.431         0.299215        -160.581
76.54                   0.299418        -160.694         0.954138         109.318         0.954138         109.318         0.299411        -160.696
76.575                  0.299619         -160.81         0.954077         109.205         0.954077         109.205         0.299611         -160.81
76.61                   0.299823        -160.926         0.954015         109.092         0.954015         109.092         0.299815        -160.925
76.645                  0.300031        -161.041         0.953952         108.978         0.953952         108.978         0.300021         -161.04
76.68                   0.300243        -161.157         0.953887         108.865         0.953887         108.865         0.300232        -161.155
76.715                  0.300458        -161.273         0.953821         108.751         0.953821         108.751         0.300445         -161.27
76.75                   0.300676        -161.389         0.953753         108.637         0.953753         108.637         0.300662        -161.386
76.785                  0.300898        -161.505         0.953685         108.523         0.953685         108.523         0.300883        -161.501
76.82                   0.301122        -161.621         0.953615         108.409         0.953615         108.409         0.301106        -161.616
76.855                   0.30135        -161.737         0.953544         108.295         0.953544         108.295         0.301333        -161.731
76.89                   0.301582        -161.853         0.953471          108.18         0.953471          108.18         0.301563        -161.847
76.925                  0.301816        -161.969         0.953398         108.066         0.953398         108.066         0.301797        -161.962
76.96                   0.302053        -162.085         0.953323         107.951         0.953323         107.951         0.302033        -162.078
76.995                  0.302293          -162.2         0.953247         107.836         0.953247         107.836         0.302272        -162.193
77.03                   0.302536        -162.316          0.95317         107.722          0.95317         107.722         0.302514        -162.308
77.065                  0.302782        -162.432         0.953092         107.607         0.953092         107.607         0.302759        -162.424
77.1                    0.303031        -162.547         0.953013         107.492         0.953013         107.492         0.303007        -162.539
77.135                  0.303282        -162.663         0.952933         107.376         0.952933         107.376         0.303258        -162.654
77.17                   0.303536        -162.778         0.952851         107.261         0.952851         107.261         0.303512        -162.769
77.205                  0.303792        -162.893         0.952769         107.146         0.952769         107.146         0.303768        -162.884
77.24                   0.304051        -163.008         0.952686          107.03         0.952686          107.03         0.304026        -162.999
77.275                  0.304312        -163.123         0.952602         106.915         0.952602         106.915         0.304287        -163.114
77.31                   0.304575        -163.238         0.952516         106.799         0.952516         106.799          0.30455        -163.229
77.345                   0.30484        -163.353          0.95243         106.684          0.95243         106.684         0.304816        -163.344
77.38                   0.305107        -163.468         0.952344         106.568         0.952344         106.568         0.305084        -163.459
77.415                  0.305377        -163.582         0.952256         106.453         0.952256         106.453         0.305353        -163.573
77.45                   0.305648        -163.696         0.952167         106.337         0.952167         106.337         0.305625        -163.688
77.485                  0.305921        -163.811         0.952078         106.221         0.952078         106.221         0.305899        -163.802
77.52                   0.306195        -163.925         0.951988         106.105         0.951988         106.105         0.306175        -163.916
77.555                  0.306471        -164.038         0.951898         105.989         0.951898         105.989         0.306452         -164.03
77.59                   0.306749        -164.152         0.951807         105.874         0.951807         105.874         0.306731        -164.144
77.625                  0.307027        -164.266         0.951715         105.758         0.951715         105.758         0.307011        -164.258
77.66                   0.307308        -164.379         0.951623         105.642         0.951623         105.642         0.307293        -164.372
77.695                  0.307589        -164.492          0.95153         105.526          0.95153         105.526         0.307577        -164.486
77.73                   0.307871        -164.605         0.951436          105.41         0.951436          105.41         0.307861        -164.599
77.765                  0.308155        -164.718         0.951343         105.294         0.951343         105.294         0.308147        -164.712
77.8                    0.308439        -164.831         0.951248         105.178         0.951248         105.178         0.308433        -164.826
77.835                  0.308724        -164.944         0.951154         105.062         0.951154         105.062         0.308721        -164.939
77.87                   0.309009        -165.056         0.951059         104.946         0.951059         104.946         0.309009        -165.052
77.905                  0.309296        -165.168         0.950964          104.83         0.950964          104.83         0.309299        -165.165
77.94                   0.309582        -165.281         0.950868         104.714         0.950868         104.714         0.309588        -165.278
77.975                  0.309869        -165.393         0.950773         104.598         0.950773         104.598         0.309879         -165.39
78.01                   0.310157        -165.505         0.950677         104.482         0.950677         104.482          0.31017        -165.503
78.045                  0.310444        -165.616         0.950581         104.366         0.950581         104.366         0.310461        -165.615
78.08                   0.310732        -165.728         0.950485          104.25         0.950485          104.25         0.310752        -165.728
78.115                   0.31102         -165.84         0.950388         104.135         0.950388         104.135         0.311043         -165.84
78.15                   0.311307        -165.951         0.950292         104.019         0.950292         104.019         0.311335        -165.952
78.185                  0.311595        -166.063         0.950196         103.903         0.950196         103.903         0.311626        -166.064
78.22                   0.311882        -166.174           0.9501         103.787           0.9501         103.787         0.311918        -166.176
78.255                  0.312169        -166.285         0.950004         103.671         0.950004         103.671         0.312209        -166.288
78.29                   0.312455        -166.396         0.949908         103.556         0.949908         103.556         0.312499          -166.4
78.325                  0.312741        -166.507         0.949812          103.44         0.949812          103.44          0.31279        -166.512
78.36                   0.313027        -166.618         0.949716         103.324         0.949716         103.324         0.313079        -166.624
78.395                  0.313311        -166.729          0.94962         103.209          0.94962         103.209         0.313368        -166.735
78.43                   0.313595         -166.84         0.949525         103.093         0.949525         103.093         0.313657        -166.847
78.465                  0.313878        -166.951          0.94943         102.978          0.94943         102.978         0.313944        -166.959
78.5                     0.31416        -167.061         0.949335         102.862         0.949335         102.862         0.314231         -167.07
78.535                  0.314441        -167.172         0.949241         102.747         0.949241         102.747         0.314516        -167.182
78.57                   0.314721        -167.283         0.949147         102.631         0.949147         102.631           0.3148        -167.293
78.605                     0.315        -167.393         0.949053         102.516         0.949053         102.516         0.315084        -167.405
78.64                   0.315277        -167.504          0.94896         102.401          0.94896         102.401         0.315366        -167.516
78.675                  0.315553        -167.615         0.948868         102.286         0.948868         102.286         0.315646        -167.628
78.71                   0.315828        -167.725         0.948775         102.171         0.948775         102.171         0.315925        -167.739
78.745                  0.316101        -167.836         0.948684         102.056         0.948684         102.056         0.316203        -167.851
78.78                   0.316373        -167.947         0.948592         101.941         0.948592         101.941         0.316479        -167.962
78.815                  0.316643        -168.057         0.948502         101.826         0.948502         101.826         0.316753        -168.073
78.85                   0.316911        -168.168         0.948412         101.711         0.948412         101.711         0.317025        -168.185
78.885                  0.317177        -168.279         0.948322         101.596         0.948322         101.596         0.317296        -168.296
78.92                   0.317442         -168.39         0.948234         101.481         0.948234         101.481         0.317564        -168.408
78.955                  0.317705          -168.5         0.948146         101.366         0.948146         101.366         0.317831        -168.519
78.99                   0.317966        -168.611         0.948058         101.252         0.948058         101.252         0.318095        -168.631
79.025                  0.318224        -168.722         0.947972         101.137         0.947972         101.137         0.318358        -168.743
79.06                   0.318481        -168.833         0.947886         101.023         0.947886         101.023         0.318618        -168.854
79.095                  0.318736        -168.944         0.947801         100.909         0.947801         100.909         0.318876        -168.966
79.13                   0.318988        -169.055         0.947716         100.794         0.947716         100.794         0.319131        -169.078
79.165                  0.319238        -169.167         0.947633          100.68         0.947633          100.68         0.319384         -169.19
79.2                    0.319485        -169.278          0.94755         100.566          0.94755         100.566         0.319634        -169.302
79.235                  0.319731        -169.389         0.947468         100.452         0.947468         100.452         0.319882        -169.414
79.27                   0.319973        -169.501         0.947387         100.338         0.947387         100.338         0.320127        -169.526
79.305                  0.320213        -169.613         0.947307         100.224         0.947307         100.224         0.320369        -169.638
79.34                   0.320451        -169.724         0.947228          100.11         0.947228          100.11         0.320609         -169.75
79.375                  0.320686        -169.836         0.947149         99.9962         0.947149         99.9962         0.320846        -169.862
79.41                   0.320918        -169.948         0.947072         99.8825         0.947072         99.8825          0.32108        -169.974
79.445                  0.321148         -170.06         0.946996         99.7689         0.946996         99.7689          0.32131        -170.087
79.48                   0.321375        -170.172          0.94692         99.6554          0.94692         99.6554         0.321538        -170.199
79.515                  0.321598        -170.284         0.946846         99.5419         0.946846         99.5419         0.321763        -170.312
