! TOUCHSTONE file generated by CST MICROWAVE STUDIO
! Date and time: Wed Feb 14 15:11:44 2024
! Project name: metal_rotado.cst
! Parameters = {angY=1.5}
! Header version: 2018
! Port assignment regex: !\s*Touchstone port\s*([0-9]+)\s*=\s*(CST MWS port|CST DS port)\s*([0-9]+|Zmin|Zmax)\s*\(\"(.*)\"\)(\s*mode\s*([0-9]+))?.*
! Touchstone port assignment:
! Touchstone port 1 = CST MWS port 1 ("")
! Touchstone port 2 = CST MWS port 2 ("")
# GHz S MA R 376.7
75                             1         156.106                0               0                0               0                1        -156.097
75.035                         1         155.755      4.77771e-65        -179.998      4.77771e-65        -179.998                1        -156.431
75.07                          1         155.405      4.77771e-65        -179.997      4.77771e-65        -179.997                1        -156.764
75.105                   1.00001         155.054      4.77772e-65        -179.995      4.77772e-65        -179.995                1        -157.097
75.14                    1.00001         154.703      4.77772e-65        -179.994      4.77772e-65        -179.994         0.999999        -157.429
75.175                   1.00001         154.352      4.77773e-65        -179.992      4.77773e-65        -179.992         0.999999        -157.762
75.21                    1.00001         154.001      4.77773e-65         -179.99      4.77773e-65         -179.99         0.999999        -158.094
75.245                   1.00001         153.651      4.77774e-65        -179.989      4.77774e-65        -179.989         0.999999        -158.426
75.28                    1.00001           153.3      4.77775e-65        -179.987      4.77775e-65        -179.987         0.999999        -158.757
75.315                   1.00001         152.949      4.77775e-65        -179.986      4.77775e-65        -179.986         0.999999        -159.089
75.35                    1.00001         152.598      4.77776e-65        -179.984      4.77776e-65        -179.984         0.999999         -159.42
75.385                   1.00001         152.248      4.77777e-65        -179.983      4.77777e-65        -179.983         0.999999        -159.751
75.42                    1.00001         151.897      4.67825e-65        -179.981      4.67825e-65        -179.981         0.999999        -160.082
75.455                   1.00001         151.546      4.67826e-65        -179.979      4.67826e-65        -179.979         0.999999        -160.413
75.49                    1.00001         151.196      4.67827e-65        -179.978      4.67827e-65        -179.978         0.999999        -160.744
75.525                   1.00001         150.845      4.67828e-65        -179.976      4.67828e-65        -179.976         0.999999        -161.075
75.56                    1.00001         150.494       4.6783e-65        -179.975       4.6783e-65        -179.975         0.999999        -161.405
75.595                   1.00001         150.143      4.67831e-65        -179.973      4.67831e-65        -179.973         0.999999        -161.735
75.63                    1.00001         149.793      4.67833e-65        -179.971      4.67833e-65        -179.971         0.999999        -162.066
75.665                   1.00001         149.442      4.67834e-65         -179.97      4.67834e-65         -179.97         0.999999        -162.396
75.7                     1.00001         149.091      4.67836e-65        -179.968      4.67836e-65        -179.968         0.999999        -162.726
75.735                   1.00001         148.741      4.67838e-65        -179.967      4.67838e-65        -179.967                1        -163.055
75.77                          1          148.39       4.6784e-65        -179.965       4.6784e-65        -179.965                1        -163.385
75.805                         1         148.039      4.67841e-65        -179.964      4.67841e-65        -179.964                1        -163.715
75.84                   0.999999         147.689      4.67843e-65        -179.962      4.67843e-65        -179.962                1        -164.044
75.875                  0.999997         147.338      4.67846e-65         -179.96      4.67846e-65         -179.96                1        -164.374
75.91                   0.999993         146.988      4.67848e-65        -179.959      4.67848e-65        -179.959                1        -164.703
75.945                  0.999989         146.637       4.6785e-65        -179.957       4.6785e-65        -179.957                1        -165.032
75.98                   0.999985         146.287      4.67852e-65        -179.956      4.67852e-65        -179.956                1        -165.361
76.015                  0.999979         145.936      4.67855e-65        -179.954      4.67855e-65        -179.954                1         -165.69
76.05                   0.999973         145.586      4.57903e-65        -179.953      4.57903e-65        -179.953                1        -166.019
76.085                  0.999966         145.235      4.57905e-65        -179.951      4.57905e-65        -179.951                1        -166.348
76.12                   0.999957         144.885      4.57908e-65         -179.95      4.57908e-65         -179.95                1        -166.676
76.155                  0.999946         144.534       4.5791e-65        -179.948       4.5791e-65        -179.948                1        -167.003
76.19                   0.999934         144.184      4.57913e-65        -179.947      4.57913e-65        -179.947                1         -167.33
76.225                  0.999918         143.834      4.57916e-65        -179.945      4.57916e-65        -179.945                1        -167.654
76.26                   0.999898         143.483      4.57919e-65        -179.943      4.57919e-65        -179.943                1        -167.971
76.295                  0.999872         143.133      4.57922e-65        -179.942      4.57922e-65        -179.942                1        -168.205
76.33                   0.999838         142.783      4.57924e-65         -179.94      4.57924e-65         -179.94                1        -168.711
76.365                  0.999792         142.433      4.57927e-65        -179.939      4.57927e-65        -179.939                1        -169.009
76.4                    0.999728         142.083      4.57931e-65        -179.937      4.57931e-65        -179.937                1         -169.33
76.435                  0.999635         141.732      4.57934e-65        -179.936      4.57934e-65        -179.936                1        -169.655
76.47                   0.999505         141.378      4.47982e-65        -179.934      4.47982e-65        -179.934                1        -169.982
76.505                   0.99935         141.019      4.47986e-65        -179.933      4.47986e-65        -179.933                1         -170.31
76.54                   0.999279         140.652      4.47989e-65        -179.931      4.47989e-65        -179.931                1        -170.638
76.575                  0.999457         140.284      4.47993e-65         -179.93      4.47993e-65         -179.93                1        -170.967
76.61                   0.999746         139.929      4.47996e-65        -179.928      4.47996e-65        -179.928                1        -171.296
76.645                   0.99994         139.582      4.47999e-65        -179.927      4.47999e-65        -179.927                1        -171.625
76.68                    1.00004         139.237      4.48003e-65        -179.925      4.48003e-65        -179.925                1        -171.954
76.715                   1.00008         138.891      4.48006e-65        -179.924      4.48006e-65        -179.924                1        -172.284
76.75                     1.0001         138.543       4.4801e-65        -179.922       4.4801e-65        -179.922                1        -172.614
76.785                   1.00011         138.195      4.48014e-65        -179.921      4.48014e-65        -179.921                1        -172.944
76.82                    1.00011         137.846      4.48018e-65        -179.919      4.48018e-65        -179.919                1        -173.275
76.855                   1.00011         137.497      4.38066e-65        -179.917      4.38066e-65        -179.917                1        -173.608
76.89                    1.00011         137.147       4.3807e-65        -179.916       4.3807e-65        -179.916                1        -173.942
76.925                    1.0001         136.797      4.38074e-65        -179.914      4.38074e-65        -179.914                1        -174.279
76.96                    1.00009         136.447      4.38078e-65        -179.913      4.38078e-65        -179.913                1        -174.623
76.995                   1.00007         136.097      4.38082e-65        -179.911      4.38082e-65        -179.911                1        -174.985
77.03                   0.999997          135.76                0               0                0               0                1        -175.452
77.065                   1.00015         135.395      4.28134e-65         -179.91      4.28134e-65         -179.91                1        -175.104
77.1                     1.00012         135.044      4.28138e-65        -179.908      4.28138e-65        -179.908                1        -175.765
77.135                    1.0001         134.694      4.28142e-65        -179.906      4.28142e-65        -179.906                1        -176.141
77.17                    1.00009         134.343      4.28147e-65        -179.904      4.28147e-65        -179.904                1        -176.489
77.205                   1.00008         133.992      4.28151e-65        -179.903      4.28151e-65        -179.903                1        -176.827
77.24                    1.00007         133.641      4.28156e-65        -179.901      4.28156e-65        -179.901                1        -177.162
77.275                   1.00007          133.29       4.2816e-65          -179.9       4.2816e-65          -179.9                1        -177.495
77.31                    1.00006         132.939      4.18208e-65        -179.899      4.18208e-65        -179.899                1        -177.826
77.345                   1.00005         132.588      4.18212e-65        -179.897      4.18212e-65        -179.897                1        -178.156
77.38                    1.00004         132.237      4.18217e-65        -179.896      4.18217e-65        -179.896                1        -178.486
77.415                   1.00003         131.885      4.18222e-65        -179.894      4.18222e-65        -179.894                1        -178.815
77.45                    1.00001         131.534      4.18226e-65        -179.893      4.18226e-65        -179.893                1        -179.144
77.485                         1         131.182      4.18231e-65        -179.891      4.18231e-65        -179.891                1        -179.472
77.52                   0.999993          130.83      4.18236e-65         -179.89      4.18236e-65         -179.89                1        -179.799
77.555                  0.999984         130.478      4.18241e-65        -179.889      4.18241e-65        -179.889                1         179.876
77.59                   0.999976         130.126      4.18246e-65        -179.887      4.18246e-65        -179.887                1         179.555
77.625                  0.999969         129.774      4.18251e-65        -179.886      4.18251e-65        -179.886                1         179.267
77.66                   0.999966         129.422      4.18257e-65        -179.884      4.18257e-65        -179.884                1         178.808
77.695                  0.999964         129.069      4.18262e-65        -179.883      4.18262e-65        -179.883                1         178.526
77.73                   0.999966         128.717      4.08308e-65        -179.881      4.08308e-65        -179.881                1         178.206
77.765                  0.999969         128.365      4.08314e-65         -179.88      4.08314e-65         -179.88                1         177.881
77.8                    0.999975         128.012      4.08319e-65        -179.879      4.08319e-65        -179.879                1         177.554
77.835                  0.999982          127.66      4.08324e-65        -179.877      4.08324e-65        -179.877                1         177.227
77.87                    0.99999         127.308       4.0833e-65        -179.876       4.0833e-65        -179.876                1         176.899
77.905                  0.999999         126.955      4.08335e-65        -179.874      4.08335e-65        -179.874                1         176.571
77.94                    1.00001         126.603       4.0834e-65        -179.873       4.0834e-65        -179.873                1         176.243
77.975                   1.00002         126.251      4.08346e-65        -179.872      4.08346e-65        -179.872                1         175.915
78.01                    1.00002         125.899      4.08352e-65         -179.87      4.08352e-65         -179.87                1         175.587
78.045                   1.00003         125.547      4.08357e-65        -179.869      4.08357e-65        -179.869                1         175.259
78.08                    1.00004         125.195      4.08363e-65        -179.868      4.08363e-65        -179.868                1         174.931
78.115                   1.00005         124.843      4.08369e-65        -179.866      4.08369e-65        -179.866                1         174.602
78.15                    1.00005         124.491      3.98414e-65        -179.865      3.98414e-65        -179.865                1         174.274
78.185                   1.00006         124.139       3.9842e-65        -179.864       3.9842e-65        -179.864                1         173.946
78.22                    1.00006         123.787      3.98426e-65        -179.862      3.98426e-65        -179.862                1         173.617
78.255                   1.00007         123.434      3.98432e-65        -179.861      3.98432e-65        -179.861                1         173.289
78.29                    1.00007         123.082      3.98438e-65         -179.86      3.98438e-65         -179.86                1          172.96
78.325                   1.00008          122.73                0               0                0               0                1         172.632
78.36                    1.00008         122.378       3.9845e-65        -179.857       3.9845e-65        -179.857                1         172.304
78.395                   1.00008         122.025      3.98456e-65        -179.856      3.98456e-65        -179.856                1         171.975
78.43                    1.00009         121.673      3.98462e-65        -179.854      3.98462e-65        -179.854                1         171.647
78.465                   1.00009         121.321      3.98468e-65        -179.853      3.98468e-65        -179.853                1         171.318
78.5                     1.00009         120.968      3.98474e-65        -179.852      3.98474e-65        -179.852                1          170.99
78.535                   1.00009         120.616      3.98481e-65        -179.851      3.98481e-65        -179.851                1         170.662
78.57                    1.00009         120.263      3.98487e-65        -179.849      3.98487e-65        -179.849                1         170.333
78.605                   1.00009         119.911      3.98494e-65        -179.848      3.98494e-65        -179.848                1         170.005
78.64                    1.00009         119.558        3.985e-65        -179.847        3.985e-65        -179.847                1         169.676
78.675                   1.00009         119.205      3.88544e-65        -179.845      3.88544e-65        -179.845                1         169.348
78.71                    1.00008         118.853       3.8855e-65        -179.844       3.8855e-65        -179.844                1         169.019
78.745                   1.00008           118.5      3.88557e-65        -179.843      3.88557e-65        -179.843                1         168.691
78.78                    1.00008         118.147      3.88563e-65        -179.842      3.88563e-65        -179.842                1         168.362
78.815                   1.00007         117.794       3.8857e-65         -179.84       3.8857e-65         -179.84                1         168.034
78.85                    1.00007         117.441      3.88576e-65        -179.839      3.88576e-65        -179.839                1         167.706
78.885                   1.00006         117.087      3.88583e-65        -179.838      3.88583e-65        -179.838                1         167.377
78.92                    1.00006         116.734       3.8859e-65        -179.837       3.8859e-65        -179.837                1         167.049
78.955                   1.00005         116.381      3.88597e-65        -179.836      3.88597e-65        -179.836                1         166.721
78.99                    1.00004         116.027      3.88603e-65        -179.834      3.88603e-65        -179.834                1         166.393
79.025                   1.00003         115.673       3.8861e-65        -179.833       3.8861e-65        -179.833                1         166.065
79.06                    1.00003         115.319      3.88617e-65        -179.832      3.88617e-65        -179.832         0.999999         165.737
79.095                   1.00002         114.965      3.88624e-65        -179.831      3.88624e-65        -179.831         0.999998         165.411
79.13                    1.00001         114.611      3.88631e-65         -179.83      3.88631e-65         -179.83         0.999988         165.089
79.165                         1         114.257       3.8864e-65        -179.828       3.8864e-65        -179.828         0.999125         164.646
79.2                    0.999993         113.902       3.7868e-65        -179.827       3.7868e-65        -179.827          0.99999         164.407
79.235                  0.999986         113.547      3.78687e-65        -179.826      3.78687e-65        -179.826         0.999997         164.084
79.27                   0.999982         113.192      3.78694e-65        -179.825      3.78694e-65        -179.825         0.999999         163.757
79.305                  0.999985         112.836      3.78701e-65        -179.824      3.78701e-65        -179.824         0.999999         163.429
79.34                    1.00001         112.479      3.78708e-65        -179.823      3.78708e-65        -179.823         0.999999         163.101
79.375                    1.0001         112.121      3.78716e-65        -179.821      3.78716e-65        -179.821                1         162.773
79.41                    1.00029         111.774      3.78723e-65         -179.82      3.78723e-65         -179.82                1         162.444
79.445                   1.00015          111.43       3.7873e-65        -179.819       3.7873e-65        -179.819                1         162.116
79.48                    1.00005         111.075      3.78737e-65        -179.818      3.78737e-65        -179.818                1         161.787
79.515                   1.00001         110.718      3.68778e-65        -179.817      3.68778e-65        -179.817                1         161.459
79.55                   0.999992         110.362      3.68785e-65        -179.816      3.68785e-65        -179.816                1          161.13
