! TOUCHSTONE file generated by CST MICROWAVE STUDIO
! Date and time: Tue Feb 13 13:36:46 2024
! Project name: metal_paredes.cst
! Header version: 2018
! Port assignment regex: !\s*Touchstone port\s*([0-9]+)\s*=\s*(CST MWS port|CST DS port)\s*([0-9]+|Zmin|Zmax)\s*\(\"(.*)\"\)(\s*mode\s*([0-9]+))?.*
! Touchstone port assignment:
! Touchstone port 1 = CST MWS port 1 ("")
! Touchstone port 2 = CST MWS port 2 ("")
# GHz S MA R 376.7
75                      0.999632         179.349                0               0                0               0         0.999705        -179.938
75.035                  0.999961         179.012      3.99914e-65            -180      3.99914e-65            -180         0.999959        -179.937
75.07                   0.999988         178.676      3.99914e-65            -180      3.99914e-65            -180         0.999987        -179.937
75.105                  0.999997         178.341      3.89916e-65            -180      3.89916e-65            -180         0.999997        -179.937
75.14                          1         178.005                0               0                0               0                1        -179.937
75.175                         1         177.669      3.89916e-65            -180      3.89916e-65            -180                1        -179.937
75.21                          1         177.333      3.89916e-65            -180      3.89916e-65            -180                1        -179.937
75.245                         1         176.997      3.89916e-65            -180      3.89916e-65            -180                1        -179.936
75.28                          1         176.661      3.89916e-65            -180      3.89916e-65            -180                1        -179.936
75.315                         1         176.325      3.89916e-65            -180      3.89916e-65            -180                1        -179.936
75.35                          1         175.989      3.89916e-65            -180      3.89916e-65            -180                1        -179.936
75.385                         1         175.653      3.89916e-65            -180      3.89916e-65            -180                1        -179.935
75.42                          1         175.317      3.89917e-65            -180      3.89917e-65            -180                1        -179.935
75.455                         1         174.981      3.89917e-65        -179.999      3.89917e-65        -179.999                1        -179.935
75.49                          1         174.645      3.89917e-65        -179.999      3.89917e-65        -179.999                1        -179.934
75.525                         1         174.309      3.79919e-65        -179.999      3.79919e-65        -179.999                1        -179.934
75.56                          1         173.973      3.79919e-65        -179.999      3.79919e-65        -179.999                1        -179.934
75.595                         1         173.637      3.79919e-65        -179.999      3.79919e-65        -179.999                1        -179.933
75.63                          1         173.301      3.79919e-65        -179.999      3.79919e-65        -179.999                1        -179.933
75.665                         1         172.965      3.79919e-65        -179.999      3.79919e-65        -179.999                1        -179.933
75.7                           1         172.629      3.79919e-65        -179.999      3.79919e-65        -179.999                1        -179.933
75.735                         1         172.293      3.79919e-65        -179.999      3.79919e-65        -179.999                1        -179.932
75.77                          1         171.957      3.79919e-65        -179.999      3.79919e-65        -179.999                1        -179.932
75.805                         1         171.621      3.79919e-65        -179.999      3.79919e-65        -179.999                1        -179.932
75.84                          1         171.285      3.79919e-65        -179.999      3.79919e-65        -179.999                1        -179.931
75.875                         1         170.949      3.79919e-65        -179.999      3.79919e-65        -179.999                1        -179.931
75.91                          1         170.613      3.79919e-65        -179.999      3.79919e-65        -179.999                1        -179.931
75.945                         1         170.277      3.79919e-65        -179.999      3.79919e-65        -179.999                1         -179.93
75.98                          1         169.941      3.79919e-65        -179.999      3.79919e-65        -179.999                1         -179.93
76.015                         1         169.605      3.79919e-65        -179.999      3.79919e-65        -179.999                1         -179.93
76.05                          1         169.269      3.79919e-65        -179.999      3.79919e-65        -179.999                1         -179.93
76.085                         1         168.933      3.79919e-65        -179.999      3.79919e-65        -179.999                1        -179.929
76.12                          1         168.597      3.69921e-65        -179.999      3.69921e-65        -179.999                1        -179.929
76.155                         1         168.262      3.69921e-65        -179.999      3.69921e-65        -179.999                1        -179.929
76.19                          1         167.926      3.69922e-65        -179.999      3.69922e-65        -179.999                1        -179.928
76.225                         1          167.59      3.69922e-65        -179.999      3.69922e-65        -179.999                1        -179.928
76.26                          1         167.254      3.69922e-65        -179.999      3.69922e-65        -179.999                1        -179.928
76.295                         1         166.918      3.69922e-65        -179.999      3.69922e-65        -179.999                1        -179.927
76.33                          1         166.582      3.69922e-65        -179.999      3.69922e-65        -179.999                1        -179.927
76.365                         1         166.246      3.69922e-65        -179.999      3.69922e-65        -179.999                1        -179.927
76.4                           1          165.91      3.69922e-65        -179.999      3.69922e-65        -179.999                1        -179.927
76.435                         1         165.574      3.69922e-65        -179.998      3.69922e-65        -179.998                1        -179.926
76.47                          1         165.238      3.69922e-65        -179.998      3.69922e-65        -179.998                1        -179.926
76.505                         1         164.902      3.69922e-65        -179.998      3.69922e-65        -179.998                1        -179.926
76.54                          1         164.566      3.69922e-65        -179.998      3.69922e-65        -179.998                1        -179.925
76.575                         1          164.23      3.59924e-65        -179.998      3.59924e-65        -179.998                1        -179.925
76.61                          1         163.894      3.59924e-65        -179.998      3.59924e-65        -179.998                1        -179.924
76.645                  0.999999         163.559      3.59924e-65        -179.998      3.59924e-65        -179.998                1        -179.923
76.68                   0.999998         163.223      3.59924e-65        -179.998      3.59924e-65        -179.998                1        -179.921
76.715                  0.999996         162.887      3.59925e-65        -179.998      3.59925e-65        -179.998         0.999986        -179.922
76.75                   0.999993         162.551      3.59925e-65        -179.998      3.59925e-65        -179.998         0.999983        -179.922
76.785                  0.999991         162.215                0               0                0               0         0.999984        -179.922
76.82                    0.99999         161.879      3.59925e-65        -179.998      3.59925e-65        -179.998         0.999985        -179.922
76.855                   0.99999         161.543      3.59925e-65        -179.998      3.59925e-65        -179.998         0.999987        -179.922
76.89                    0.99999         161.207      3.59925e-65        -179.998      3.59925e-65        -179.998         0.999988        -179.922
76.925                  0.999991         160.871      3.59925e-65        -179.998      3.59925e-65        -179.998         0.999989        -179.921
76.96                   0.999991         160.535      3.59925e-65        -179.998      3.59925e-65        -179.998         0.999989        -179.921
76.995                  0.999992         160.199      3.59925e-65        -179.998      3.59925e-65        -179.998          0.99999        -179.921
77.03                   0.999992         159.863      3.49927e-65        -179.998      3.49927e-65        -179.998         0.999991         -179.92
77.065                  0.999993         159.527      3.49927e-65        -179.998      3.49927e-65        -179.998         0.999991         -179.92
77.1                    0.999993         159.191      3.49927e-65        -179.998      3.49927e-65        -179.998         0.999992         -179.92
77.135                  0.999993         158.855      3.49927e-65        -179.998      3.49927e-65        -179.998         0.999992         -179.92
77.17                   0.999993         158.519      3.49928e-65        -179.998      3.49928e-65        -179.998         0.999992        -179.919
77.205                  0.999994         158.183      3.49928e-65        -179.998      3.49928e-65        -179.998         0.999993        -179.919
77.24                   0.999994         157.847      3.49928e-65        -179.998      3.49928e-65        -179.998         0.999993        -179.919
77.275                  0.999994         157.511      3.49928e-65        -179.998      3.49928e-65        -179.998         0.999993        -179.918
77.31                   0.999994         157.175      3.49928e-65        -179.998      3.49928e-65        -179.998         0.999994        -179.918
77.345                  0.999994         156.839      3.49928e-65        -179.998      3.49928e-65        -179.998         0.999994        -179.918
77.38                   0.999994         156.504      3.49928e-65        -179.998      3.49928e-65        -179.998         0.999994        -179.917
77.415                  0.999994         156.168      3.49928e-65        -179.998      3.49928e-65        -179.998         0.999994        -179.917
77.45                   0.999995         155.832      3.49928e-65        -179.997      3.49928e-65        -179.997         0.999994        -179.917
77.485                  0.999995         155.496       3.3993e-65        -179.997       3.3993e-65        -179.997         0.999994        -179.916
77.52                   0.999995          155.16       3.3993e-65        -179.997       3.3993e-65        -179.997         0.999994        -179.916
77.555                  0.999995         154.824      3.39931e-65        -179.997      3.39931e-65        -179.997         0.999994        -179.915
77.59                   0.999995         154.488      3.39931e-65        -179.997      3.39931e-65        -179.997         0.999994        -179.915
77.625                  0.999995         154.152      3.39931e-65        -179.997      3.39931e-65        -179.997         0.999994        -179.915
77.66                   0.999995         153.816      3.39931e-65        -179.997      3.39931e-65        -179.997         0.999994        -179.914
77.695                  0.999995          153.48      3.39931e-65        -179.997      3.39931e-65        -179.997         0.999994        -179.914
77.73                   0.999995         153.144      3.39931e-65        -179.997      3.39931e-65        -179.997         0.999994        -179.914
77.765                  0.999995         152.808      3.39931e-65        -179.997      3.39931e-65        -179.997         0.999993        -179.913
77.8                    0.999995         152.473      3.39931e-65        -179.997      3.39931e-65        -179.997         0.999993        -179.913
77.835                  0.999995         152.137      3.39931e-65        -179.997      3.39931e-65        -179.997         0.999993        -179.913
77.87                   0.999995         151.801      3.39931e-65        -179.997      3.39931e-65        -179.997         0.999992        -179.912
77.905                  0.999995         151.465      3.29934e-65        -179.997      3.29934e-65        -179.997         0.999992        -179.912
77.94                   0.999995         151.129      3.29934e-65        -179.997      3.29934e-65        -179.997         0.999992        -179.912
77.975                  0.999995         150.793      3.29934e-65        -179.997      3.29934e-65        -179.997         0.999991        -179.911
78.01                   0.999995         150.457      3.29934e-65        -179.997      3.29934e-65        -179.997         0.999991        -179.911
78.045                  0.999995         150.121      3.29934e-65        -179.997      3.29934e-65        -179.997          0.99999        -179.911
78.08                   0.999995         149.785      3.29934e-65        -179.997      3.29934e-65        -179.997          0.99999         -179.91
78.115                  0.999995         149.449      3.29934e-65        -179.997      3.29934e-65        -179.997         0.999989         -179.91
78.15                   0.999994         149.113      3.29934e-65        -179.997      3.29934e-65        -179.997         0.999988         -179.91
78.185                  0.999994         148.777      3.29934e-65        -179.997      3.29934e-65        -179.997         0.999988        -179.909
78.22                   0.999994         148.441      3.29934e-65        -179.997      3.29934e-65        -179.997         0.999987        -179.909
78.255                  0.999993         148.105      3.29935e-65        -179.997      3.29935e-65        -179.997         0.999986        -179.909
78.29                   0.999993         147.769      3.29935e-65        -179.997      3.29935e-65        -179.997         0.999986        -179.908
78.325                  0.999992         147.433      3.29935e-65        -179.997      3.29935e-65        -179.997         0.999985        -179.908
78.36                   0.999991         147.097      3.19937e-65        -179.997      3.19937e-65        -179.997         0.999984        -179.908
78.395                   0.99999         146.761      3.19937e-65        -179.997      3.19937e-65        -179.997         0.999982        -179.907
78.43                   0.999989         146.425      3.19937e-65        -179.997      3.19937e-65        -179.997         0.999981        -179.907
78.465                  0.999986         146.089      3.19937e-65        -179.997      3.19937e-65        -179.997         0.999979        -179.907
78.5                    0.999978         145.753      3.19937e-65        -179.997      3.19937e-65        -179.997         0.999976        -179.906
78.535                  0.999961         145.417      3.19937e-65        -179.997      3.19937e-65        -179.997         0.999971        -179.906
78.57                   0.999966         145.083                0               0                0               0         0.999963        -179.905
78.605                  0.999985         144.747      3.19938e-65        -179.996      3.19938e-65        -179.996         0.999975        -179.903
78.64                    0.99999         144.411      3.19938e-65        -179.996      3.19938e-65        -179.996                1        -179.903
78.675                  0.999993         144.075      3.19938e-65        -179.996      3.19938e-65        -179.996                1        -179.904
78.71                   0.999994         143.738      3.19938e-65        -179.996      3.19938e-65        -179.996                1        -179.904
78.745                  0.999995         143.402       3.0994e-65        -179.996       3.0994e-65        -179.996                1        -179.904
78.78                   0.999996         143.066       3.0994e-65        -179.996       3.0994e-65        -179.996         0.999999        -179.904
78.815                  0.999997          142.73       3.0994e-65        -179.996       3.0994e-65        -179.996         0.999998        -179.903
78.85                   0.999998         142.394       3.0994e-65        -179.996       3.0994e-65        -179.996         0.999997        -179.903
78.885                  0.999999         142.058      3.09941e-65        -179.996      3.09941e-65        -179.996         0.999996        -179.903
78.92                   0.999999         141.722      3.09941e-65        -179.996      3.09941e-65        -179.996         0.999996        -179.902
78.955                         1         141.386      3.09941e-65        -179.996      3.09941e-65        -179.996         0.999996        -179.902
78.99                          1         141.051      3.09941e-65        -179.996      3.09941e-65        -179.996         0.999995        -179.902
79.025                         1         140.715      3.09941e-65        -179.996      3.09941e-65        -179.996         0.999995        -179.901
79.06                          1         140.379      3.09941e-65        -179.996      3.09941e-65        -179.996         0.999995        -179.901
79.095                         1         140.043      3.09941e-65        -179.996      3.09941e-65        -179.996         0.999996        -179.901
79.13                          1         139.707      2.99943e-65        -179.996      2.99943e-65        -179.996         0.999996          -179.9
79.165                         1         139.371      2.99943e-65        -179.996      2.99943e-65        -179.996         0.999996          -179.9
79.2                           1         139.035      2.99944e-65        -179.996      2.99944e-65        -179.996         0.999996          -179.9
79.235                         1         138.699      2.99944e-65        -179.996      2.99944e-65        -179.996         0.999996        -179.899
79.27                          1         138.363      2.99944e-65        -179.996      2.99944e-65        -179.996         0.999996        -179.899
79.305                         1         138.027      2.99944e-65        -179.996      2.99944e-65        -179.996         0.999997        -179.899
79.34                          1         137.691      2.99944e-65        -179.996      2.99944e-65        -179.996         0.999997        -179.898
79.375                         1         137.355      2.99944e-65        -179.996      2.99944e-65        -179.996         0.999997        -179.898
79.41                          1         137.019      2.99944e-65        -179.996      2.99944e-65        -179.996         0.999997        -179.898
79.445                         1         136.683      2.99944e-65        -179.996      2.99944e-65        -179.996         0.999998        -179.897
79.48                          1         136.348      2.99945e-65        -179.996      2.99945e-65        -179.996         0.999998        -179.897
79.515                         1         136.012      2.99945e-65        -179.996      2.99945e-65        -179.996         0.999999        -179.897
79.55                          1         135.676      2.99945e-65        -179.996      2.99945e-65        -179.996         0.999999        -179.896
