! TOUCHSTONE file generated by CST MICROWAVE STUDIO
! Date and time: Wed Feb  7 22:17:31 2024
! Project name: metal_desal.cst
! Header version: 2018
! Port assignment regex: !\s*Touchstone port\s*([0-9]+)\s*=\s*(CST MWS port|CST DS port)\s*([0-9]+|Zmin|Zmax)\s*\(\"(.*)\"\)(\s*mode\s*([0-9]+))?.*
! Touchstone port assignment:
! Touchstone port 1 = CST MWS port 1 ("")
! Touchstone port 2 = CST MWS port 2 ("")
# GHz S MA R 376.7
75                      0.994169        -176.542                0               0                0               0         0.994204        -176.551
75.035                  0.994193        -176.879      3.67654e-65          179.98      3.67654e-65          179.98          0.99423        -176.887
75.07                   0.994216        -177.215      3.67655e-65         179.982      3.67655e-65         179.982         0.994255        -177.223
75.105                  0.994238        -177.552      3.67657e-65         179.984      3.67657e-65         179.984         0.994278        -177.558
75.14                   0.994259        -177.889      3.67658e-65         179.987      3.67658e-65         179.987           0.9943        -177.894
75.175                  0.994279        -178.225       3.6766e-65         179.989       3.6766e-65         179.989          0.99432         -178.23
75.21                   0.994299        -178.562      3.67662e-65         179.991      3.67662e-65         179.991         0.994339        -178.566
75.245                  0.994319        -178.899      3.67663e-65         179.993      3.67663e-65         179.993         0.994357        -178.902
75.28                   0.994337        -179.235      3.67665e-65         179.995      3.67665e-65         179.995         0.994374        -179.238
75.315                  0.994355        -179.572      3.67667e-65         179.997      3.67667e-65         179.997          0.99439        -179.574
75.35                   0.994372        -179.909      3.67669e-65         179.999      3.67669e-65         179.999         0.994405         -179.91
75.385                  0.994389         179.755      3.67671e-65        -179.998      3.67671e-65        -179.998         0.994419         179.754
75.42                   0.994405         179.418      3.67673e-65        -179.996      3.67673e-65        -179.996         0.994432         179.418
75.455                  0.994421         179.081      3.57739e-65        -179.994      3.57739e-65        -179.994         0.994444         179.082
75.49                   0.994436         178.745      3.57741e-65        -179.992      3.57741e-65        -179.992         0.994456         178.745
75.525                   0.99445         178.408      3.57743e-65         -179.99      3.57743e-65         -179.99         0.994468         178.409
75.56                   0.994464         178.072      3.57745e-65        -179.988      3.57745e-65        -179.988         0.994478         178.073
75.595                  0.994477         177.735      3.57748e-65        -179.986      3.57748e-65        -179.986         0.994489         177.737
75.63                    0.99449         177.398      3.57751e-65        -179.984      3.57751e-65        -179.984         0.994498           177.4
75.665                  0.994502         177.062      3.57753e-65        -179.982      3.57753e-65        -179.982         0.994508         177.064
75.7                    0.994514         176.725      3.57756e-65        -179.979      3.57756e-65        -179.979         0.994517         176.728
75.735                  0.994525         176.388      3.57759e-65        -179.977      3.57759e-65        -179.977         0.994525         176.391
75.77                   0.994536         176.052      3.57762e-65        -179.975      3.57762e-65        -179.975         0.994533         176.055
75.805                  0.994546         175.715      3.57764e-65        -179.973      3.57764e-65        -179.973         0.994541         175.719
75.84                   0.994556         175.379      3.57767e-65        -179.971      3.57767e-65        -179.971         0.994549         175.382
75.875                  0.994566         175.042      3.57771e-65        -179.969      3.57771e-65        -179.969         0.994556         175.046
75.91                   0.994574         174.706      3.57774e-65        -179.967      3.57774e-65        -179.967         0.994563         174.709
75.945                  0.994583         174.369      3.57777e-65        -179.965      3.57777e-65        -179.965          0.99457         174.373
75.98                   0.994591         174.033       3.5778e-65        -179.963       3.5778e-65        -179.963         0.994576         174.036
76.015                  0.994598         173.696      3.57784e-65        -179.961      3.57784e-65        -179.961         0.994582           173.7
76.05                   0.994605          173.36      3.57787e-65        -179.959      3.57787e-65        -179.959         0.994587         173.364
76.085                  0.994611         173.023      3.57791e-65        -179.957      3.57791e-65        -179.957         0.994593         173.027
76.12                   0.994617         172.687      3.47855e-65        -179.955      3.47855e-65        -179.955         0.994598         172.691
76.155                  0.994623          172.35      3.47859e-65        -179.953      3.47859e-65        -179.953         0.994602         172.355
76.19                   0.994627         172.014      3.47863e-65        -179.951      3.47863e-65        -179.951         0.994606         172.018
76.225                  0.994632         171.678      3.47866e-65        -179.949      3.47866e-65        -179.949          0.99461         171.682
76.26                   0.994635         171.341       3.4787e-65        -179.947       3.4787e-65        -179.947         0.994614         171.346
76.295                  0.994638         171.005      3.47874e-65        -179.945      3.47874e-65        -179.945         0.994616          171.01
76.33                   0.994641         170.669      3.47878e-65        -179.943      3.47878e-65        -179.943         0.994619         170.673
76.365                  0.994643         170.333      3.47882e-65        -179.941      3.47882e-65        -179.941         0.994621         170.337
76.4                    0.994644         169.997      3.47886e-65        -179.939      3.47886e-65        -179.939         0.994622         170.001
76.435                  0.994644         169.661       3.4789e-65        -179.937       3.4789e-65        -179.937         0.994623         169.665
76.47                   0.994644         169.325      3.47894e-65        -179.935      3.47894e-65        -179.935         0.994623          169.33
76.505                  0.994642         168.989      3.47898e-65        -179.933      3.47898e-65        -179.933         0.994622         168.994
76.54                    0.99464         168.653      3.47903e-65        -179.931      3.47903e-65        -179.931         0.994621         168.658
76.575                  0.994637         168.318      3.37967e-65        -179.929      3.37967e-65        -179.929         0.994619         168.323
76.61                   0.994632         167.982      3.37971e-65        -179.927      3.37971e-65        -179.927         0.994615         167.987
76.645                  0.994626         167.647      3.37975e-65        -179.925      3.37975e-65        -179.925         0.994611         167.652
76.68                   0.994619         167.312       3.3798e-65        -179.923       3.3798e-65        -179.923         0.994606         167.317
76.715                  0.994611         166.977      3.37984e-65        -179.921      3.37984e-65        -179.921         0.994599         166.982
76.75                   0.994601         166.643      3.37989e-65        -179.919      3.37989e-65        -179.919         0.994591         166.648
76.785                  0.994589         166.309                0               0                0               0         0.994582         166.314
76.82                   0.994575         165.975      3.37998e-65        -179.915      3.37998e-65        -179.915         0.994571         165.981
76.855                  0.994559         165.643      3.38003e-65        -179.913      3.38003e-65        -179.913         0.994558         165.648
76.89                   0.994541         165.311      3.38008e-65        -179.911      3.38008e-65        -179.911         0.994545         165.316
76.925                  0.994522          164.98      3.38013e-65         -179.91      3.38013e-65         -179.91         0.994531         164.986
76.96                   0.994504         164.651      3.38017e-65        -179.908      3.38017e-65        -179.908         0.994519         164.657
76.995                  0.994489         164.324      3.38022e-65        -179.906      3.38022e-65        -179.906         0.994512          164.33
77.03                   0.994488         164.001      3.28085e-65        -179.904      3.28085e-65        -179.904         0.994521         164.007
77.065                  0.994521         163.683       3.2809e-65        -179.902       3.2809e-65        -179.902         0.994568         163.689
77.1                    0.994647         163.374      3.28094e-65        -179.901      3.28094e-65        -179.901         0.994711         163.379
77.135                  0.995022         163.076      3.28098e-65        -179.899      3.28098e-65        -179.899         0.995101         163.079
77.17                   0.996047         162.784      3.28101e-65        -179.897      3.28101e-65        -179.897         0.996116         162.785
77.205                  0.998143         162.444      3.28102e-65        -179.895      3.28102e-65        -179.895         0.998146         162.444
77.24                   0.999565         161.985      3.28106e-65        -179.892      3.28106e-65        -179.892         0.999571         161.988
77.275                  0.998868         161.539      3.28114e-65         -179.89      3.28114e-65         -179.89         0.998895         161.541
77.31                   0.997828         161.165      3.28122e-65        -179.888      3.28122e-65        -179.888         0.997834         161.166
77.345                  0.997102         160.821      3.28129e-65        -179.886      3.28129e-65        -179.886          0.99709         160.822
77.38                   0.996634         160.486      3.28135e-65        -179.885      3.28135e-65        -179.885         0.996612         160.488
77.415                  0.996323         160.153      3.28141e-65        -179.883      3.28141e-65        -179.883         0.996297         160.156
77.45                   0.996108         159.821      3.28147e-65        -179.881      3.28147e-65        -179.881          0.99608         159.824
77.485                  0.995952         159.488      3.18209e-65        -179.879      3.18209e-65        -179.879         0.995924         159.492
77.52                   0.995835         159.155      3.18215e-65        -179.878      3.18215e-65        -179.878         0.995809         159.159
77.555                  0.995745         158.821       3.1822e-65        -179.876       3.1822e-65        -179.876          0.99572         158.825
77.59                   0.995674         158.487      3.18226e-65        -179.874      3.18226e-65        -179.874         0.995651         158.491
77.625                  0.995616         158.152      3.18232e-65        -179.872      3.18232e-65        -179.872         0.995595         158.157
77.66                   0.995567         157.817      3.18238e-65        -179.871      3.18238e-65        -179.871         0.995551         157.823
77.695                  0.995526         157.482      3.18244e-65        -179.869      3.18244e-65        -179.869         0.995514         157.488
77.73                   0.995489         157.146      3.18249e-65        -179.867      3.18249e-65        -179.867         0.995483         157.153
77.765                  0.995454          156.81      3.18255e-65        -179.865      3.18255e-65        -179.865         0.995458         156.817
77.8                    0.995417         156.474      3.18261e-65        -179.864      3.18261e-65        -179.864         0.995436         156.482
77.835                  0.995372         156.138      3.18267e-65        -179.862      3.18267e-65        -179.862         0.995418         156.146
77.87                   0.995312         155.803      3.18273e-65         -179.86      3.18273e-65         -179.86         0.995402         155.811
77.905                  0.995262          155.47       3.1828e-65        -179.859       3.1828e-65        -179.859         0.995389         155.475
77.94                   0.995284         155.138      3.18286e-65        -179.857      3.18286e-65        -179.857         0.995377         155.139
77.975                  0.995327         154.803      3.18292e-65        -179.855      3.18292e-65        -179.855         0.995367         154.803
78.01                   0.995348         154.466      3.18298e-65        -179.854      3.18298e-65        -179.854         0.995359         154.467
78.045                  0.995355         154.129      3.18304e-65        -179.852      3.18304e-65        -179.852         0.995352         154.131
78.08                   0.995356         153.792      3.18311e-65         -179.85      3.18311e-65         -179.85         0.995346         153.795
78.115                  0.995355         153.456      3.18317e-65        -179.849      3.18317e-65        -179.849          0.99534         153.459
78.15                   0.995352         153.119      3.08376e-65        -179.847      3.08376e-65        -179.847         0.995336         153.122
78.185                   0.99535         152.782      3.08382e-65        -179.845      3.08382e-65        -179.845         0.995332         152.786
78.22                   0.995347         152.446      3.08389e-65        -179.844      3.08389e-65        -179.844          0.99533          152.45
78.255                  0.995345         152.109      3.08395e-65        -179.842      3.08395e-65        -179.842         0.995327         152.113
78.29                   0.995344         151.772      3.08401e-65         -179.84      3.08401e-65         -179.84         0.995325         151.777
78.325                  0.995342         151.436      3.08408e-65        -179.839      3.08408e-65        -179.839         0.995324         151.441
78.36                   0.995341         151.099      3.08414e-65        -179.837      3.08414e-65        -179.837         0.995324         151.104
78.395                   0.99534         150.763      3.08421e-65        -179.836      3.08421e-65        -179.836         0.995323         150.768
78.43                    0.99534         150.426      3.08427e-65        -179.834      3.08427e-65        -179.834         0.995323         150.431
78.465                   0.99534         150.089      3.08434e-65        -179.833      3.08434e-65        -179.833         0.995324         150.095
78.5                     0.99534         149.753      3.08441e-65        -179.831      3.08441e-65        -179.831         0.995325         149.758
78.535                  0.995341         149.416      3.08447e-65        -179.829      3.08447e-65        -179.829         0.995326         149.422
78.57                   0.995342         149.079                0               0                0               0         0.995328         149.085
78.605                  0.995344         148.743      3.08461e-65        -179.826      3.08461e-65        -179.826          0.99533         148.749
78.64                   0.995345         148.406      3.08468e-65        -179.825      3.08468e-65        -179.825         0.995333         148.412
78.675                  0.995347         148.069      3.08475e-65        -179.823      3.08475e-65        -179.823         0.995336         148.076
78.71                   0.995349         147.733      3.08482e-65        -179.822      3.08482e-65        -179.822          0.99534         147.739
78.745                  0.995352         147.396      3.08489e-65         -179.82      3.08489e-65         -179.82         0.995345         147.403
78.78                   0.995355         147.059      3.08496e-65        -179.819      3.08496e-65        -179.819          0.99535         147.066
78.815                  0.995358         146.723      3.08503e-65        -179.817      3.08503e-65        -179.817         0.995357         146.729
78.85                   0.995361         146.386       3.0851e-65        -179.816       3.0851e-65        -179.816         0.995365         146.392
78.885                  0.995365         146.049      2.98565e-65        -179.814      2.98565e-65        -179.814         0.995373         146.055
78.92                   0.995369         145.712      2.98572e-65        -179.813      2.98572e-65        -179.813         0.995374         145.718
78.955                  0.995373         145.376      2.98579e-65        -179.811      2.98579e-65        -179.811         0.995358         145.381
78.99                   0.995378         145.039      2.98586e-65         -179.81      2.98586e-65         -179.81         0.995345         145.045
79.025                  0.995383         144.702      2.98593e-65        -179.809      2.98593e-65        -179.809         0.995346         144.709
79.06                   0.995388         144.366        2.986e-65        -179.807        2.986e-65        -179.807         0.995353         144.372
79.095                  0.995393         144.029      2.98607e-65        -179.806      2.98607e-65        -179.806          0.99536         144.036
79.13                   0.995399         143.692      2.98614e-65        -179.804      2.98614e-65        -179.804         0.995367           143.7
79.165                  0.995405         143.356      2.98621e-65        -179.803      2.98621e-65        -179.803         0.995375         143.363
79.2                    0.995412         143.019      2.98629e-65        -179.802      2.98629e-65        -179.802         0.995382         143.027
79.235                  0.995418         142.682      2.98636e-65          -179.8      2.98636e-65          -179.8          0.99539          142.69
79.27                   0.995425         142.346      2.98643e-65        -179.799      2.98643e-65        -179.799         0.995398         142.354
79.305                  0.995433         142.009      2.98651e-65        -179.798      2.98651e-65        -179.798         0.995406         142.017
79.34                   0.995441         141.672      2.98658e-65        -179.796      2.98658e-65        -179.796         0.995414          141.68
79.375                  0.995449         141.335      2.98665e-65        -179.795      2.98665e-65        -179.795         0.995423         141.344
79.41                   0.995458         140.999      2.98673e-65        -179.794      2.98673e-65        -179.794         0.995432         141.007
79.445                  0.995467         140.662       2.9868e-65        -179.792       2.9868e-65        -179.792         0.995442         140.671
79.48                   0.995477         140.325      2.98688e-65        -179.791      2.98688e-65        -179.791         0.995451         140.334
79.515                  0.995487         139.989      2.88739e-65         -179.79      2.88739e-65         -179.79         0.995462         139.998
79.55                   0.995498         139.652      2.88746e-65        -179.788      2.88746e-65        -179.788         0.995472         139.661
