! TOUCHSTONE file generated by CST MICROWAVE STUDIO
! Date and time: Fri Feb  2 19:47:38 2024
! Project name: metal_prueba.cst
! Header version: 2018
! Port assignment regex: !\s*Touchstone port\s*([0-9]+)\s*=\s*(CST MWS port|CST DS port)\s*([0-9]+|Zmin|Zmax)\s*\(\"(.*)\"\)(\s*mode\s*([0-9]+))?.*
! Touchstone port assignment:
! Touchstone port 1 = CST MWS port 1 ("")
! Touchstone port 2 = CST MWS port 2 ("")
# GHz S MA R 376.7
10                             1         83.9175                0               0                0               0         0.999999         83.9174
10.02                          1         83.7253      8.00019e-66        -179.988      8.00019e-66        -179.988         0.999999         83.7252
10.04                          1         83.5331      8.00019e-66        -179.988      8.00019e-66        -179.988         0.999999          83.533
10.06                          1         83.3409       8.0002e-66        -179.988       8.0002e-66        -179.988         0.999999         83.3408
10.08                          1         83.1487       8.0002e-66        -179.988       8.0002e-66        -179.988         0.999999         83.1486
10.1                           1         82.9565      8.00021e-66        -179.988      8.00021e-66        -179.988         0.999999         82.9564
10.12                          1         82.7643      8.00022e-66        -179.988      8.00022e-66        -179.988         0.999999         82.7643
10.14                          1         82.5721      8.00022e-66        -179.988      8.00022e-66        -179.988         0.999999         82.5721
10.16                          1         82.3799      8.00023e-66        -179.988      8.00023e-66        -179.988         0.999999         82.3799
10.18                          1         82.1877      8.00023e-66        -179.988      8.00023e-66        -179.988         0.999999         82.1877
10.2                           1         81.9955      8.00024e-66        -179.988      8.00024e-66        -179.988         0.999999         81.9955
10.22                          1         81.8033      8.00024e-66        -179.988      8.00024e-66        -179.988         0.999999         81.8033
10.24                          1         81.6111      8.00025e-66        -179.988      8.00025e-66        -179.988         0.999999         81.6111
10.26                          1         81.4189      8.00026e-66        -179.988      8.00026e-66        -179.988         0.999999         81.4189
10.28                          1         81.2267      8.00026e-66        -179.988      8.00026e-66        -179.988         0.999999         81.2267
10.3                           1         81.0345      8.00027e-66        -179.988      8.00027e-66        -179.988         0.999999         81.0345
10.32                          1         80.8423      8.00027e-66        -179.988      8.00027e-66        -179.988         0.999999         80.8423
10.34                          1         80.6501      8.00028e-66        -179.988      8.00028e-66        -179.988         0.999999         80.6501
10.36                          1         80.4579      8.00028e-66        -179.988      8.00028e-66        -179.988         0.999999         80.4579
10.38                          1         80.2657      8.00029e-66        -179.988      8.00029e-66        -179.988         0.999999         80.2657
10.4                           1         80.0735       8.0003e-66        -179.988       8.0003e-66        -179.988         0.999999         80.0735
10.42                          1         79.8813       8.0003e-66        -179.988       8.0003e-66        -179.988         0.999999         79.8813
10.44                          1         79.6891      8.00031e-66        -179.988      8.00031e-66        -179.988         0.999999         79.6891
10.46                          1         79.4969      8.00031e-66        -179.988      8.00031e-66        -179.988         0.999999         79.4969
10.48                          1         79.3048      8.00032e-66        -179.988      8.00032e-66        -179.988                1         79.3047
10.5                           1         79.1126      8.00032e-66        -179.988      8.00032e-66        -179.988                1         79.1125
10.52                          1         78.9204      8.00033e-66        -179.988      8.00033e-66        -179.988                1         78.9203
10.54                          1         78.7282      8.00034e-66        -179.988      8.00034e-66        -179.988                1         78.7281
10.56                          1          78.536      8.00034e-66        -179.988      8.00034e-66        -179.988                1         78.5359
10.58                          1         78.3438      8.00035e-66        -179.988      8.00035e-66        -179.988                1         78.3437
10.6                           1         78.1516      8.00035e-66        -179.988      8.00035e-66        -179.988                1         78.1515
10.62                          1         77.9594      8.00036e-66        -179.988      8.00036e-66        -179.988                1         77.9593
10.64                          1         77.7672      8.00036e-66        -179.988      8.00036e-66        -179.988                1         77.7671
10.66                          1          77.575      8.00037e-66        -179.988      8.00037e-66        -179.988                1         77.5749
10.68                          1         77.3828      8.00037e-66        -179.988      8.00037e-66        -179.988                1         77.3827
10.7                           1         77.1906      8.00038e-66        -179.988      8.00038e-66        -179.988                1         77.1905
10.72                          1         76.9984      8.00039e-66        -179.988      8.00039e-66        -179.988                1         76.9983
10.74                          1         76.8062      8.00039e-66        -179.988      8.00039e-66        -179.988                1         76.8061
10.76                          1          76.614       8.0004e-66        -179.988       8.0004e-66        -179.988                1         76.6139
10.78                          1         76.4218       8.0004e-66        -179.988       8.0004e-66        -179.988                1         76.4217
10.8                           1         76.2296      8.00041e-66        -179.988      8.00041e-66        -179.988                1         76.2295
10.82                          1         76.0374      8.00041e-66        -179.988      8.00041e-66        -179.988                1         76.0374
10.84                          1         75.8452      8.00042e-66        -179.988      8.00042e-66        -179.988                1         75.8452
10.86                          1          75.653      8.00043e-66        -179.988      8.00043e-66        -179.988                1          75.653
10.88                          1         75.4608      8.00043e-66        -179.988      8.00043e-66        -179.988                1         75.4608
10.9                           1         75.2686      8.00044e-66        -179.988      8.00044e-66        -179.988                1         75.2686
10.92                          1         75.0764      8.00044e-66        -179.988      8.00044e-66        -179.988                1         75.0764
10.94                          1         74.8842      7.00039e-66        -179.988      7.00039e-66        -179.988                1         74.8842
10.96                          1          74.692       7.0004e-66        -179.988       7.0004e-66        -179.988                1          74.692
10.98                          1         74.4998       7.0004e-66        -179.988       7.0004e-66        -179.988                1         74.4998
11                             1         74.3076      7.00041e-66        -179.988      7.00041e-66        -179.988                1         74.3076
11.02                          1         74.1154      7.00041e-66        -179.988      7.00041e-66        -179.988                1         74.1154
11.04                          1         73.9232      7.00042e-66        -179.988      7.00042e-66        -179.988                1         73.9232
11.06                          1          73.731      7.00042e-66        -179.988      7.00042e-66        -179.988                1          73.731
11.08                          1         73.5388      7.00043e-66        -179.988      7.00043e-66        -179.988                1         73.5388
11.1                           1         73.3466      7.00043e-66        -179.988      7.00043e-66        -179.988                1         73.3466
11.12                          1         73.1544      7.00044e-66        -179.988      7.00044e-66        -179.988                1         73.1544
11.14                          1         72.9622      7.00044e-66        -179.988      7.00044e-66        -179.988                1         72.9621
11.16                          1           72.77      7.00044e-66        -179.988      7.00044e-66        -179.988                1         72.7699
11.18                          1         72.5778      7.00045e-66        -179.988      7.00045e-66        -179.988                1         72.5777
11.2                           1         72.3856      7.00045e-66        -179.988      7.00045e-66        -179.988                1         72.3855
11.22                          1         72.1934      7.00046e-66        -179.988      7.00046e-66        -179.988                1         72.1933
11.24                          1         72.0012      7.00046e-66        -179.988      7.00046e-66        -179.988                1         72.0011
11.26                          1          71.809      7.00047e-66        -179.988      7.00047e-66        -179.988                1         71.8089
11.28                          1         71.6168      7.00047e-66        -179.988      7.00047e-66        -179.988                1         71.6167
11.3                           1         71.4246      7.00048e-66        -179.988      7.00048e-66        -179.988                1         71.4245
11.32                          1         71.2323      7.00048e-66        -179.988      7.00048e-66        -179.988                1         71.2323
11.34                          1         71.0401      7.00049e-66        -179.988      7.00049e-66        -179.988                1         71.0401
11.36                          1         70.8479      7.00049e-66        -179.988      7.00049e-66        -179.988                1         70.8479
11.38                          1         70.6557       7.0005e-66        -179.988       7.0005e-66        -179.988                1         70.6557
11.4                           1         70.4635       7.0005e-66        -179.988       7.0005e-66        -179.988                1         70.4635
11.42                          1         70.2713      7.00051e-66        -179.988      7.00051e-66        -179.988                1         70.2713
11.44                          1         70.0791      7.00051e-66        -179.988      7.00051e-66        -179.988                1         70.0791
11.46                          1         69.8869      7.00052e-66        -179.988      7.00052e-66        -179.988                1         69.8869
11.48                          1         69.6947      7.00052e-66        -179.988      7.00052e-66        -179.988                1         69.6947
11.5                           1         69.5025      7.00053e-66        -179.988      7.00053e-66        -179.988                1         69.5025
11.52                          1         69.3103      7.00053e-66        -179.989      7.00053e-66        -179.989                1         69.3103
11.54                          1         69.1181      7.00054e-66        -179.989      7.00054e-66        -179.989                1         69.1181
11.56                          1         68.9259      7.00054e-66        -179.989      7.00054e-66        -179.989                1         68.9259
11.58                          1         68.7337      7.00054e-66        -179.989      7.00054e-66        -179.989                1         68.7337
11.6                           1         68.5415      7.00055e-66        -179.989      7.00055e-66        -179.989                1         68.5415
11.62                          1         68.3493      7.00055e-66        -179.989      7.00055e-66        -179.989                1         68.3493
11.64                          1         68.1571      7.00056e-66        -179.989      7.00056e-66        -179.989                1         68.1571
11.66                          1         67.9649      7.00056e-66        -179.989      7.00056e-66        -179.989                1         67.9649
11.68                          1         67.7727      7.00057e-66        -179.989      7.00057e-66        -179.989                1         67.7727
11.7                           1         67.5805      7.00057e-66        -179.989      7.00057e-66        -179.989                1         67.5805
11.72                          1         67.3883      7.00058e-66        -179.989      7.00058e-66        -179.989                1         67.3883
11.74                          1         67.1961      7.00058e-66        -179.989      7.00058e-66        -179.989                1         67.1961
11.76                          1         67.0039      7.00059e-66        -179.989      7.00059e-66        -179.989                1         67.0039
11.78                          1         66.8117      7.00059e-66        -179.989      7.00059e-66        -179.989                1         66.8117
11.8                           1         66.6194       7.0006e-66        -179.989       7.0006e-66        -179.989                1         66.6194
11.82                          1         66.4272       7.0006e-66        -179.989       7.0006e-66        -179.989                1         66.4272
11.84                          1          66.235      7.00061e-66        -179.989      7.00061e-66        -179.989                1          66.235
11.86                          1         66.0428      7.00061e-66        -179.989      7.00061e-66        -179.989                1         66.0428
11.88                          1         65.8506      7.00061e-66        -179.989      7.00061e-66        -179.989                1         65.8506
11.9                           1         65.6584      7.00062e-66        -179.989      7.00062e-66        -179.989                1         65.6584
11.92                          1         65.4662      7.00062e-66        -179.989      7.00062e-66        -179.989                1         65.4662
11.94                          1          65.274      7.00063e-66        -179.989      7.00063e-66        -179.989                1          65.274
11.96                          1         65.0818      7.00063e-66        -179.989      7.00063e-66        -179.989                1         65.0818
11.98                          1         64.8896      7.00064e-66        -179.989      7.00064e-66        -179.989                1         64.8896
12                             1         64.6974      7.00064e-66        -179.989      7.00064e-66        -179.989                1         64.6974
12.02                          1         64.5052      7.00065e-66        -179.989      7.00065e-66        -179.989                1         64.5052
12.04                          1          64.313      7.00065e-66        -179.989      7.00065e-66        -179.989                1          64.313
12.06                          1         64.1208      7.00066e-66        -179.989      7.00066e-66        -179.989                1         64.1208
12.08                          1         63.9286      7.00066e-66        -179.989      7.00066e-66        -179.989                1         63.9286
12.1                           1         63.7364      7.00066e-66        -179.989      7.00066e-66        -179.989                1         63.7364
12.12                          1         63.5441      7.00067e-66        -179.989      7.00067e-66        -179.989                1         63.5441
12.14                          1         63.3519      7.00067e-66        -179.989      7.00067e-66        -179.989                1         63.3519
12.16                          1         63.1597      7.00068e-66        -179.989      7.00068e-66        -179.989                1         63.1597
12.18                          1         62.9675      7.00068e-66        -179.989      7.00068e-66        -179.989                1         62.9675
12.2                           1         62.7753      7.00069e-66        -179.989      7.00069e-66        -179.989                1         62.7753
12.22                          1         62.5831      7.00069e-66        -179.989      7.00069e-66        -179.989                1         62.5831
12.24                          1         62.3909       7.0007e-66        -179.989       7.0007e-66        -179.989                1         62.3909
12.26                          1         62.1987       7.0007e-66        -179.989       7.0007e-66        -179.989                1         62.1987
12.28                          1         62.0065       7.0007e-66        -179.989       7.0007e-66        -179.989                1         62.0065
12.3                           1         61.8143      7.00071e-66        -179.989      7.00071e-66        -179.989                1         61.8143
12.32                          1         61.6221      7.00071e-66        -179.989      7.00071e-66        -179.989                1         61.6221
12.34                          1         61.4299      7.00072e-66        -179.989      7.00072e-66        -179.989                1         61.4299
12.36                          1         61.2376      7.00072e-66        -179.989      7.00072e-66        -179.989                1         61.2376
12.38                          1         61.0454      7.00073e-66        -179.989      7.00073e-66        -179.989                1         61.0454
12.4                           1         60.8532      7.00073e-66        -179.989      7.00073e-66        -179.989                1         60.8532
12.42                          1          60.661      7.00074e-66        -179.989      7.00074e-66        -179.989                1          60.661
12.44                          1         60.4688      7.00074e-66        -179.989      7.00074e-66        -179.989                1         60.4688
12.46                          1         60.2766      7.00074e-66        -179.989      7.00074e-66        -179.989                1         60.2766
12.48                          1         60.0844      7.00075e-66        -179.989      7.00075e-66        -179.989                1         60.0844
12.5                           1         59.8922      7.00075e-66        -179.989      7.00075e-66        -179.989                1         59.8922
12.52                          1            59.7      7.00076e-66        -179.989      7.00076e-66        -179.989                1            59.7
12.54                          1         59.5078      7.00076e-66        -179.989      7.00076e-66        -179.989                1         59.5078
12.56                          1         59.3155      7.00077e-66        -179.989      7.00077e-66        -179.989                1         59.3155
12.58                          1         59.1233      7.00077e-66        -179.989      7.00077e-66        -179.989                1         59.1233
12.6                           1         58.9311      7.00077e-66        -179.989      7.00077e-66        -179.989                1         58.9311
