! TOUCHSTONE file generated by CST MICROWAVE STUDIO
! Date and time: Tue Feb 13 12:27:19 2024
! Project name: metal_paredes.cst
! Header version: 2018
! Port assignment regex: !\s*Touchstone port\s*([0-9]+)\s*=\s*(CST MWS port|CST DS port)\s*([0-9]+|Zmin|Zmax)\s*\(\"(.*)\"\)(\s*mode\s*([0-9]+))?.*
! Touchstone port assignment:
! Touchstone port 1 = CST MWS port 1 ("")
! Touchstone port 2 = CST MWS port 2 ("")
# GHz S MA R 376.7
75                      0.999602        -179.943                0               0                0               0         0.999627         179.349
75.035                  0.999855        -179.934      3.79919e-65            -180      3.79919e-65            -180         0.999708         179.013
75.07                   0.999938        -179.936      3.79919e-65            -180      3.79919e-65            -180          0.99977         178.678
75.105                  0.999966        -179.937      3.79919e-65            -180      3.79919e-65            -180         0.999818         178.342
75.14                   0.999978        -179.937      3.79919e-65            -180      3.79919e-65            -180         0.999856         178.006
75.175                  0.999986        -179.938      3.79919e-65            -180      3.79919e-65            -180         0.999887         177.671
75.21                    0.99999        -179.938      3.79919e-65            -180      3.79919e-65            -180         0.999912         177.335
75.245                  0.999993        -179.938      3.79919e-65            -180      3.79919e-65            -180         0.999932         176.999
75.28                   0.999995        -179.938      3.69921e-65            -180      3.69921e-65            -180         0.999949         176.663
75.315                  0.999997        -179.938      3.69921e-65            -180      3.69921e-65            -180         0.999962         176.327
75.35                   0.999998        -179.938      3.69921e-65            -180      3.69921e-65            -180         0.999973         175.991
75.385                  0.999999        -179.937      3.69921e-65            -180      3.69921e-65            -180         0.999982         175.655
75.42                   0.999999        -179.937      3.69921e-65            -180      3.69921e-65            -180         0.999989         175.319
75.455                         1        -179.937      3.69921e-65        -179.999      3.69921e-65        -179.999         0.999995         174.983
75.49                          1        -179.937      3.69921e-65        -179.999      3.69921e-65        -179.999         0.999999         174.647
75.525                         1        -179.936      3.69921e-65        -179.999      3.69921e-65        -179.999                1         174.312
75.56                          1        -179.936      3.69921e-65        -179.999      3.69921e-65        -179.999                1         173.976
75.595                         1        -179.936      3.69921e-65        -179.999      3.69921e-65        -179.999                1          173.64
75.63                          1        -179.936      3.69921e-65        -179.999      3.69921e-65        -179.999                1         173.304
75.665                         1        -179.935      3.69921e-65        -179.999      3.69921e-65        -179.999                1         172.968
75.7                           1        -179.935      3.69921e-65        -179.999      3.69921e-65        -179.999                1         172.632
75.735                         1        -179.935      3.69921e-65        -179.999      3.69921e-65        -179.999                1         172.296
75.77                          1        -179.934      3.59923e-65        -179.999      3.59923e-65        -179.999                1          171.96
75.805                         1        -179.934      3.59923e-65        -179.999      3.59923e-65        -179.999                1         171.624
75.84                          1        -179.934      3.59923e-65        -179.999      3.59923e-65        -179.999                1         171.288
75.875                         1        -179.934      3.59923e-65        -179.999      3.59923e-65        -179.999                1         170.952
75.91                          1        -179.933      3.59923e-65        -179.999      3.59923e-65        -179.999                1         170.616
75.945                         1        -179.933      3.59923e-65        -179.999      3.59923e-65        -179.999                1          170.28
75.98                          1        -179.933      3.59923e-65        -179.999      3.59923e-65        -179.999                1         169.944
76.015                         1        -179.932                0               0                0               0                1         169.608
76.05                          1        -179.932      3.59923e-65        -179.999      3.59923e-65        -179.999                1         169.272
76.085                         1        -179.932      3.59924e-65        -179.999      3.59924e-65        -179.999                1         168.936
76.12                          1        -179.931      3.59924e-65        -179.999      3.59924e-65        -179.999         0.999998           168.6
76.155                         1        -179.931      3.59924e-65        -179.999      3.59924e-65        -179.999         0.999997         168.264
76.19                          1        -179.931      3.59924e-65        -179.999      3.59924e-65        -179.999         0.999996         167.928
76.225                         1         -179.93      3.59924e-65        -179.999      3.59924e-65        -179.999         0.999995         167.592
76.26                          1         -179.93      3.59924e-65        -179.999      3.59924e-65        -179.999         0.999994         167.257
76.295                         1         -179.93      3.59924e-65        -179.999      3.59924e-65        -179.999         0.999993         166.921
76.33                          1        -179.929      3.59924e-65        -179.999      3.59924e-65        -179.999         0.999992         166.585
76.365                         1        -179.929      3.59924e-65        -179.999      3.59924e-65        -179.999         0.999991         166.249
76.4                           1        -179.929      3.49926e-65        -179.999      3.49926e-65        -179.999         0.999991         165.913
76.435                  0.999999        -179.928      3.49926e-65        -179.998      3.49926e-65        -179.998          0.99999         165.577
76.47                   0.999999        -179.928      3.49926e-65        -179.998      3.49926e-65        -179.998         0.999989         165.241
76.505                  0.999999        -179.928      3.49926e-65        -179.998      3.49926e-65        -179.998         0.999989         164.905
76.54                   0.999998        -179.927      3.49926e-65        -179.998      3.49926e-65        -179.998         0.999989         164.569
76.575                  0.999998        -179.927      3.49926e-65        -179.998      3.49926e-65        -179.998         0.999988         164.233
76.61                   0.999998        -179.927      3.49926e-65        -179.998      3.49926e-65        -179.998         0.999988         163.897
76.645                  0.999997        -179.926      3.49926e-65        -179.998      3.49926e-65        -179.998         0.999988         163.561
76.68                   0.999997        -179.926      3.49927e-65        -179.998      3.49927e-65        -179.998         0.999988         163.225
76.715                  0.999996        -179.926      3.49927e-65        -179.998      3.49927e-65        -179.998         0.999988          162.89
76.75                   0.999995        -179.926      3.49927e-65        -179.998      3.49927e-65        -179.998         0.999988         162.554
76.785                  0.999995        -179.925                0               0                0               0         0.999988         162.218
76.82                   0.999994        -179.925      3.49927e-65        -179.998      3.49927e-65        -179.998         0.999988         161.882
76.855                  0.999993        -179.925      3.49927e-65        -179.998      3.49927e-65        -179.998         0.999988         161.546
76.89                   0.999992        -179.924      3.49927e-65        -179.998      3.49927e-65        -179.998         0.999989          161.21
76.925                  0.999992        -179.924      3.49927e-65        -179.998      3.49927e-65        -179.998         0.999989         160.874
76.96                   0.999991        -179.924      3.49927e-65        -179.998      3.49927e-65        -179.998         0.999989         160.538
76.995                  0.999991        -179.923      3.49927e-65        -179.998      3.49927e-65        -179.998         0.999989         160.202
77.03                   0.999992        -179.923      3.39929e-65        -179.998      3.39929e-65        -179.998          0.99999         159.866
77.065                  0.999992        -179.923      3.39929e-65        -179.998      3.39929e-65        -179.998          0.99999          159.53
77.1                    0.999993        -179.923      3.39929e-65        -179.998      3.39929e-65        -179.998          0.99999         159.194
77.135                  0.999993        -179.922       3.3993e-65        -179.998       3.3993e-65        -179.998         0.999991         158.858
77.17                   0.999994        -179.922       3.3993e-65        -179.998       3.3993e-65        -179.998         0.999991         158.522
77.205                  0.999995        -179.922       3.3993e-65        -179.998       3.3993e-65        -179.998         0.999991         158.186
77.24                   0.999995        -179.921       3.3993e-65        -179.998       3.3993e-65        -179.998         0.999992          157.85
77.275                  0.999996        -179.921       3.3993e-65        -179.998       3.3993e-65        -179.998         0.999992         157.515
77.31                   0.999996        -179.921       3.3993e-65        -179.998       3.3993e-65        -179.998         0.999992         157.179
77.345                  0.999996         -179.92       3.3993e-65        -179.998       3.3993e-65        -179.998         0.999992         156.843
77.38                   0.999997         -179.92       3.3993e-65        -179.998       3.3993e-65        -179.998         0.999993         156.507
77.415                  0.999997         -179.92       3.3993e-65        -179.998       3.3993e-65        -179.998         0.999993         156.171
77.45                   0.999997        -179.919       3.3993e-65        -179.997       3.3993e-65        -179.997         0.999993         155.835
77.485                  0.999997        -179.919      3.29932e-65        -179.997      3.29932e-65        -179.997         0.999993         155.499
77.52                   0.999997        -179.919      3.29933e-65        -179.997      3.29933e-65        -179.997         0.999994         155.163
77.555                  0.999997        -179.918      3.29933e-65        -179.997      3.29933e-65        -179.997         0.999994         154.827
77.59                   0.999997        -179.918      3.29933e-65        -179.997      3.29933e-65        -179.997         0.999994         154.491
77.625                  0.999997        -179.918      3.29933e-65        -179.997      3.29933e-65        -179.997         0.999994         154.155
77.66                   0.999997        -179.917      3.29933e-65        -179.997      3.29933e-65        -179.997         0.999994         153.819
77.695                  0.999997        -179.917      3.29933e-65        -179.997      3.29933e-65        -179.997         0.999994         153.483
77.73                   0.999997        -179.917      3.29933e-65        -179.997      3.29933e-65        -179.997         0.999994         153.147
77.765                  0.999997        -179.916      3.29933e-65        -179.997      3.29933e-65        -179.997         0.999994         152.811
77.8                    0.999997        -179.916      3.29933e-65        -179.997      3.29933e-65        -179.997         0.999994         152.475
77.835                  0.999997        -179.916      3.29933e-65        -179.997      3.29933e-65        -179.997         0.999994         152.139
77.87                   0.999997        -179.915      3.29933e-65        -179.997      3.29933e-65        -179.997         0.999993         151.803
77.905                  0.999997        -179.915      3.19936e-65        -179.997      3.19936e-65        -179.997         0.999993         151.467
77.94                   0.999997        -179.915      3.19936e-65        -179.997      3.19936e-65        -179.997         0.999993         151.132
77.975                  0.999997        -179.914      3.19936e-65        -179.997      3.19936e-65        -179.997         0.999993         150.796
78.01                   0.999997        -179.914      3.19936e-65        -179.997      3.19936e-65        -179.997         0.999992          150.46
78.045                  0.999996        -179.914      3.19936e-65        -179.997      3.19936e-65        -179.997         0.999992         150.124
78.08                   0.999996        -179.913      3.19936e-65        -179.997      3.19936e-65        -179.997         0.999992         149.788
78.115                  0.999996        -179.913      3.19936e-65        -179.997      3.19936e-65        -179.997         0.999991         149.452
78.15                   0.999995        -179.913      3.19936e-65        -179.997      3.19936e-65        -179.997          0.99999         149.116
78.185                  0.999995        -179.912      3.19936e-65        -179.997      3.19936e-65        -179.997          0.99999          148.78
78.22                   0.999994        -179.912      3.19936e-65        -179.997      3.19936e-65        -179.997         0.999989         148.444
78.255                  0.999993        -179.912      3.19937e-65        -179.997      3.19937e-65        -179.997         0.999988         148.108
78.29                   0.999991        -179.912      3.19937e-65        -179.997      3.19937e-65        -179.997         0.999987         147.772
78.325                  0.999989        -179.911      3.19937e-65        -179.997      3.19937e-65        -179.997         0.999985         147.437
78.36                   0.999985        -179.911      3.09939e-65        -179.997      3.09939e-65        -179.997         0.999984         147.101
78.395                  0.999979        -179.911      3.09939e-65        -179.997      3.09939e-65        -179.997         0.999982         146.765
78.43                   0.999971        -179.911      3.09939e-65        -179.997      3.09939e-65        -179.997         0.999979         146.429
78.465                   0.99996         -179.91      3.09939e-65        -179.997      3.09939e-65        -179.997         0.999976         146.093
78.5                    0.999955        -179.909      3.09939e-65        -179.997      3.09939e-65        -179.997         0.999971         145.757
78.535                  0.999956        -179.908      3.09939e-65        -179.997      3.09939e-65        -179.997         0.999965         145.422
78.57                   0.999959        -179.908                0               0                0               0         0.999956         145.086
78.605                  0.999962        -179.907       3.0994e-65        -179.996       3.0994e-65        -179.996         0.999944          144.75
78.64                   0.999964        -179.907       3.0994e-65        -179.996       3.0994e-65        -179.996         0.999932         144.413
78.675                  0.999965        -179.907       3.0994e-65        -179.996       3.0994e-65        -179.996         0.999929         144.076
78.71                   0.999966        -179.907       3.0994e-65        -179.996       3.0994e-65        -179.996         0.999939         143.739
78.745                  0.999969        -179.907       3.0994e-65        -179.996       3.0994e-65        -179.996         0.999956         143.403
78.78                   0.999973        -179.907       3.0994e-65        -179.996       3.0994e-65        -179.996         0.999969         143.067
78.815                  0.999978        -179.907       3.0994e-65        -179.996       3.0994e-65        -179.996         0.999977         142.731
78.85                   0.999984        -179.906       3.0994e-65        -179.996       3.0994e-65        -179.996         0.999982         142.396
78.885                  0.999989        -179.906      3.09941e-65        -179.996      3.09941e-65        -179.996         0.999986          142.06
78.92                   0.999992        -179.906      2.99943e-65        -179.996      2.99943e-65        -179.996         0.999989         141.724
78.955                  0.999995        -179.905      2.99943e-65        -179.996      2.99943e-65        -179.996         0.999991         141.388
78.99                   0.999997        -179.905      2.99943e-65        -179.996      2.99943e-65        -179.996         0.999992         141.053
79.025                  0.999999        -179.904      2.99943e-65        -179.996      2.99943e-65        -179.996         0.999994         140.717
79.06                          1        -179.904      2.99943e-65        -179.996      2.99943e-65        -179.996         0.999995         140.381
79.095                         1        -179.903      2.99943e-65        -179.996      2.99943e-65        -179.996         0.999996         140.045
79.13                          1        -179.903      2.99943e-65        -179.996      2.99943e-65        -179.996         0.999997         139.709
79.165                         1        -179.903      2.99943e-65        -179.996      2.99943e-65        -179.996         0.999998         139.373
79.2                           1        -179.902      2.99944e-65        -179.996      2.99944e-65        -179.996         0.999999         139.038
79.235                         1        -179.902      2.99944e-65        -179.996      2.99944e-65        -179.996         0.999999         138.702
79.27                          1        -179.901      2.99944e-65        -179.996      2.99944e-65        -179.996                1         138.366
79.305                         1        -179.901      2.99944e-65        -179.996      2.99944e-65        -179.996                1          138.03
79.34                          1        -179.901      2.99944e-65        -179.996      2.99944e-65        -179.996                1         137.694
79.375                         1          -179.9      2.99944e-65        -179.996      2.99944e-65        -179.996                1         137.358
79.41                          1          -179.9      2.89946e-65        -179.996      2.89946e-65        -179.996                1         137.022
79.445                         1          -179.9      2.89946e-65        -179.996      2.89946e-65        -179.996                1         136.686
79.48                          1        -179.899      2.89946e-65        -179.996      2.89946e-65        -179.996                1          136.35
79.515                         1        -179.899      2.89947e-65        -179.996      2.89947e-65        -179.996                1         136.014
79.55                          1        -179.899      2.89947e-65        -179.996      2.89947e-65        -179.996                1         135.678
