! TOUCHSTONE file generated by CST MICROWAVE STUDIO
! Date and time: Wed Feb 14 15:11:36 2024
! Project name: metal_rotado.cst
! Parameters = {angY=0.5}
! Header version: 2018
! Port assignment regex: !\s*Touchstone port\s*([0-9]+)\s*=\s*(CST MWS port|CST DS port)\s*([0-9]+|Zmin|Zmax)\s*\(\"(.*)\"\)(\s*mode\s*([0-9]+))?.*
! Touchstone port assignment:
! Touchstone port 1 = CST MWS port 1 ("")
! Touchstone port 2 = CST MWS port 2 ("")
# GHz S MA R 376.7
75                             1         171.875                0               0                0               0                1        -172.256
75.035                   1.00008         171.533      4.49145e-65        -179.999      4.49145e-65        -179.999          1.00002        -172.589
75.07                    1.00017         171.191      4.49145e-65        -179.998      4.49145e-65        -179.998          1.00004        -172.923
75.105                    1.0003          170.85      4.49145e-65        -179.998      4.49145e-65        -179.998          1.00005        -173.256
75.14                    1.00047          170.51      4.49145e-65        -179.997      4.49145e-65        -179.997          1.00005         -173.59
75.175                   1.00068         170.175      4.49145e-65        -179.996      4.49145e-65        -179.996          1.00006        -173.923
75.21                    1.00088         169.847      4.49145e-65        -179.996      4.49145e-65        -179.996          1.00006        -174.255
75.245                   1.00095         169.525      4.49146e-65        -179.995      4.49146e-65        -179.995          1.00005        -174.588
75.28                    1.00082         169.203      4.39165e-65        -179.995      4.39165e-65        -179.995          1.00005         -174.92
75.315                   1.00058         168.872      4.39165e-65        -179.994      4.39165e-65        -179.994          1.00004        -175.252
75.35                    1.00037         168.533      4.39166e-65        -179.993      4.39166e-65        -179.993          1.00003        -175.584
75.385                   1.00022         168.191      4.39166e-65        -179.993      4.39166e-65        -179.993          1.00003        -175.916
75.42                    1.00013         167.848      4.39166e-65        -179.992      4.39166e-65        -179.992          1.00002        -176.248
75.455                   1.00007         167.504      4.39167e-65        -179.991      4.39167e-65        -179.991          1.00001         -176.58
75.49                    1.00003         167.161      4.39167e-65        -179.991      4.39167e-65        -179.991          1.00001        -176.911
75.525                         1         166.819      4.39168e-65         -179.99      4.39168e-65         -179.99                1        -177.243
75.56                   0.999989         166.477      4.39168e-65        -179.989      4.39168e-65        -179.989         0.999998        -177.574
75.595                  0.999981         166.135      4.39169e-65        -179.989      4.39169e-65        -179.989         0.999994        -177.906
75.63                   0.999976         165.794      4.39169e-65        -179.988      4.39169e-65        -179.988         0.999991        -178.237
75.665                  0.999974         165.452       4.3917e-65        -179.988       4.3917e-65        -179.988         0.999988        -178.569
75.7                    0.999974         165.111       4.3917e-65        -179.987       4.3917e-65        -179.987         0.999986          -178.9
75.735                  0.999975          164.77      4.39171e-65        -179.986      4.39171e-65        -179.986         0.999984        -179.231
75.77                   0.999977          164.43      4.39172e-65        -179.986      4.39172e-65        -179.986         0.999983        -179.563
75.805                  0.999979         164.089      4.39172e-65        -179.985      4.39172e-65        -179.985         0.999983        -179.894
75.84                   0.999982         163.748      4.29192e-65        -179.984      4.29192e-65        -179.984         0.999984         179.774
75.875                  0.999985         163.408      4.29193e-65        -179.984      4.29193e-65        -179.984         0.999985         179.443
75.91                   0.999988         163.068      4.29193e-65        -179.983      4.29193e-65        -179.983         0.999986         179.111
75.945                   0.99999         162.727      4.29194e-65        -179.982      4.29194e-65        -179.982         0.999988          178.78
75.98                   0.999993         162.387      4.29195e-65        -179.982      4.29195e-65        -179.982          0.99999         178.448
76.015                  0.999996         162.047      4.29196e-65        -179.981      4.29196e-65        -179.981         0.999993         178.116
76.05                   0.999998         161.707      4.29196e-65        -179.981      4.29196e-65        -179.981         0.999996         177.784
76.085                         1         161.367      4.29197e-65         -179.98      4.29197e-65         -179.98         0.999999         177.452
76.12                          1         161.027      4.29198e-65        -179.979      4.29198e-65        -179.979                1          177.12
76.155                         1         160.687      4.29199e-65        -179.979      4.29199e-65        -179.979          1.00001         176.788
76.19                    1.00001         160.347        4.292e-65        -179.978        4.292e-65        -179.978          1.00001         176.456
76.225                   1.00001         160.007      4.29201e-65        -179.977      4.29201e-65        -179.977          1.00001         176.124
76.26                    1.00001         159.667      4.29202e-65        -179.977      4.29202e-65        -179.977          1.00002         175.791
76.295                   1.00001         159.327      4.29203e-65        -179.976      4.29203e-65        -179.976          1.00002         175.458
76.33                    1.00001         158.987      4.29204e-65        -179.976      4.29204e-65        -179.976          1.00002         175.125
76.365                   1.00001         158.647      4.29205e-65        -179.975      4.29205e-65        -179.975          1.00003         174.792
76.4                     1.00001         158.307      4.19225e-65        -179.974      4.19225e-65        -179.974          1.00003         174.459
76.435                   1.00001         157.967      4.19226e-65        -179.974      4.19226e-65        -179.974          1.00003         174.125
76.47                    1.00001         157.628      4.19227e-65        -179.973      4.19227e-65        -179.973          1.00003         173.791
76.505                   1.00001         157.288      4.19228e-65        -179.972      4.19228e-65        -179.972          1.00003         173.456
76.54                    1.00001         156.948       4.1923e-65        -179.972       4.1923e-65        -179.972          1.00003         173.121
76.575                         1         156.608      4.19231e-65        -179.971      4.19231e-65        -179.971          1.00002         172.786
76.61                          1         156.269      4.19232e-65        -179.971      4.19232e-65        -179.971          1.00001         172.449
76.645                         1         155.929      4.19233e-65         -179.97      4.19233e-65         -179.97         0.999998         172.112
76.68                   0.999997         155.589      4.19235e-65        -179.969      4.19235e-65        -179.969         0.999973         171.773
76.715                  0.999994         155.249      4.19236e-65        -179.969      4.19236e-65        -179.969         0.999934         171.433
76.75                   0.999991          154.91      4.19237e-65        -179.968      4.19237e-65        -179.968         0.999871          171.09
76.785                  0.999987          154.57      4.19239e-65        -179.968      4.19239e-65        -179.968         0.999766         170.744
76.82                   0.999983          154.23       4.1924e-65        -179.967       4.1924e-65        -179.967         0.999585         170.393
76.855                  0.999978         153.891      4.19242e-65        -179.966      4.19242e-65        -179.966         0.999248         170.036
76.89                   0.999972         153.551      4.19244e-65        -179.966      4.19244e-65        -179.966          0.99857         169.673
76.925                  0.999966         153.211      4.09264e-65        -179.965      4.09264e-65        -179.965         0.997141         169.315
76.96                   0.999958         152.871      4.09266e-65        -179.964      4.09266e-65        -179.964         0.994724         169.036
76.995                   0.99995         152.532      4.09268e-65        -179.964      4.09268e-65        -179.964         0.994016         168.897
77.03                    0.99994         152.192      4.09268e-65        -179.964      4.09268e-65        -179.964         0.996046         168.673
77.065                  0.999929         151.852      4.09269e-65        -179.963      4.09269e-65        -179.963          0.99768         168.344
77.1                    0.999915         151.513      4.09271e-65        -179.962      4.09271e-65        -179.962          0.99856         167.991
77.135                  0.999898         151.173      4.09272e-65        -179.962      4.09272e-65        -179.962         0.999041         167.639
77.17                   0.999878         150.833      4.09274e-65        -179.961      4.09274e-65        -179.961         0.999326          167.29
77.205                  0.999853         150.494      4.09275e-65         -179.96      4.09275e-65         -179.96         0.999507         166.945
77.24                   0.999821         150.154      4.09277e-65         -179.96      4.09277e-65         -179.96         0.999629         166.602
77.275                  0.999779         149.815      4.09278e-65        -179.959      4.09278e-65        -179.959         0.999715         166.262
77.31                   0.999726         149.477       4.0928e-65        -179.959       4.0928e-65        -179.959         0.999779         165.922
77.345                  0.999665          149.14      4.09282e-65        -179.958      4.09282e-65        -179.958         0.999827         165.584
77.38                   0.999614         148.806      4.09284e-65        -179.957      4.09284e-65        -179.957         0.999864         165.246
77.415                  0.999619         148.474      4.09285e-65        -179.957      4.09285e-65        -179.957         0.999894         164.909
77.45                   0.999712         148.141      4.09287e-65        -179.956      4.09287e-65        -179.956         0.999918         164.572
77.485                  0.999838         147.803      3.99306e-65        -179.956      3.99306e-65        -179.956         0.999937         164.236
77.52                   0.999931         147.462      3.99308e-65        -179.955      3.99308e-65        -179.955         0.999952           163.9
77.555                  0.999982          147.12       3.9931e-65        -179.955       3.9931e-65        -179.955         0.999965         163.564
77.59                    1.00001         146.778      3.99312e-65        -179.954      3.99312e-65        -179.954         0.999975         163.228
77.625                   1.00001         146.436      3.99314e-65        -179.953      3.99314e-65        -179.953         0.999983         162.892
77.66                    1.00002         146.095      3.99316e-65        -179.953      3.99316e-65        -179.953          0.99999         162.557
77.695                   1.00001         145.754      3.99318e-65        -179.952      3.99318e-65        -179.952         0.999995         162.221
77.73                          1         145.414       3.9932e-65        -179.952       3.9932e-65        -179.952                1         161.886
77.765                  0.999996         145.074      3.99322e-65        -179.951      3.99322e-65        -179.951                1          161.55
77.8                    0.999985         144.733      3.99324e-65         -179.95      3.99324e-65         -179.95          1.00001         161.215
77.835                  0.999972         144.393      3.99326e-65         -179.95      3.99326e-65         -179.95          1.00001         160.879
77.87                   0.999957         144.053      3.99328e-65        -179.949      3.99328e-65        -179.949          1.00001         160.544
77.905                  0.999939         143.713       3.9933e-65        -179.949       3.9933e-65        -179.949          1.00001         160.208
77.94                   0.999917         143.373      3.99332e-65        -179.948      3.99332e-65        -179.948          1.00001         159.873
77.975                  0.999888         143.034      3.99334e-65        -179.948      3.99334e-65        -179.948          1.00001         159.537
78.01                    0.99985         142.694      3.89353e-65        -179.947      3.89353e-65        -179.947          1.00001         159.202
78.045                    0.9998         142.356      3.89355e-65        -179.947      3.89355e-65        -179.947          1.00001         158.867
78.08                   0.999744         142.019      3.89357e-65        -179.946      3.89357e-65        -179.946          1.00001         158.531
78.115                  0.999706         141.685       3.8936e-65        -179.945       3.8936e-65        -179.945          1.00001         158.196
78.15                   0.999739         141.352      3.89362e-65        -179.945      3.89362e-65        -179.945          1.00001         157.861
78.185                  0.999836         141.016      3.89364e-65        -179.944      3.89364e-65        -179.944          1.00001         157.525
78.22                   0.999926         140.676      3.89366e-65        -179.944      3.89366e-65        -179.944          1.00001          157.19
78.255                   0.99998         140.335      3.89368e-65        -179.943      3.89368e-65        -179.943          1.00001         156.855
78.29                    1.00001         139.994      3.89371e-65        -179.943      3.89371e-65        -179.943          1.00001         156.521
78.325                   1.00002         139.653      3.89373e-65        -179.942      3.89373e-65        -179.942          1.00001         156.186
78.36                    1.00003         139.312      3.89375e-65        -179.942      3.89375e-65        -179.942          1.00001         155.852
78.395                   1.00003         138.971      3.89378e-65        -179.941      3.89378e-65        -179.941          1.00001         155.517
78.43                    1.00003         138.631       3.8938e-65        -179.941       3.8938e-65        -179.941          1.00001         155.183
78.465                   1.00003         138.291      3.89382e-65         -179.94      3.89382e-65         -179.94          1.00001          154.85
78.5                     1.00002         137.951      3.89385e-65        -179.939      3.89385e-65        -179.939          1.00001         154.516
78.535                   1.00002         137.612      3.89387e-65        -179.939      3.89387e-65        -179.939          1.00001         154.183
78.57                    1.00002         137.272      3.79405e-65        -179.938      3.79405e-65        -179.938          1.00001          153.85
78.605                   1.00002         136.932      3.79408e-65        -179.938      3.79408e-65        -179.938                1         153.517
78.64                    1.00002         136.593       3.7941e-65        -179.937       3.7941e-65        -179.937                1         153.184
78.675                   1.00001         136.253      3.79413e-65        -179.937      3.79413e-65        -179.937                1         152.852
78.71                    1.00001         135.914      3.79415e-65        -179.936      3.79415e-65        -179.936                1         152.519
78.745                   1.00001         135.574      3.79418e-65        -179.936      3.79418e-65        -179.936                1         152.187
78.78                    1.00001         135.235       3.7942e-65        -179.935       3.7942e-65        -179.935                1         151.855
78.815                   1.00001         134.895      3.79423e-65        -179.935      3.79423e-65        -179.935                1         151.524
78.85                    1.00001         134.556      3.79425e-65        -179.934      3.79425e-65        -179.934         0.999999         151.192
78.885                   1.00001         134.216      3.79428e-65        -179.934      3.79428e-65        -179.934         0.999998          150.86
78.92                    1.00002         133.877       3.7943e-65        -179.933       3.7943e-65        -179.933         0.999997         150.529
78.955                   1.00002         133.538      3.79433e-65        -179.933      3.79433e-65        -179.933         0.999997         150.198
78.99                    1.00002         133.198      3.79436e-65        -179.932      3.79436e-65        -179.932         0.999996         149.867
79.025                   1.00003         132.859      3.79438e-65        -179.932      3.79438e-65        -179.932         0.999995         149.535
79.06                    1.00004         132.519      3.79441e-65        -179.931      3.79441e-65        -179.931         0.999995         149.204
79.095                   1.00005          132.18      3.79444e-65        -179.931      3.79444e-65        -179.931         0.999994         148.873
79.13                    1.00006          131.84      3.69461e-65         -179.93      3.69461e-65         -179.93         0.999994         148.543
79.165                   1.00008           131.5      3.69463e-65         -179.93      3.69463e-65         -179.93         0.999994         148.212
79.2                     1.00009          131.16      3.69466e-65        -179.929      3.69466e-65        -179.929         0.999994         147.881
79.235                    1.0001          130.82      3.69469e-65        -179.929      3.69469e-65        -179.929         0.999994          147.55
79.27                    1.00011         130.479      3.69472e-65        -179.928      3.69472e-65        -179.928         0.999995         147.219
79.305                    1.0001         130.138      3.69474e-65        -179.928      3.69474e-65        -179.928         0.999996         146.889
79.34                    1.00009         129.797      3.69477e-65        -179.927      3.69477e-65        -179.927         0.999997         146.558
79.375                   1.00008         129.457                0               0                0               0         0.999999         146.228
79.41                    1.00006         129.117      3.69483e-65        -179.926      3.69483e-65        -179.926                1         145.897
79.445                   1.00005         128.777      3.69485e-65        -179.926      3.69485e-65        -179.926                1         145.567
79.48                    1.00004         128.437      3.69488e-65        -179.926      3.69488e-65        -179.926          1.00001         145.237
79.515                   1.00003         128.098      3.69491e-65        -179.925      3.69491e-65        -179.925          1.00001         144.908
79.55                    1.00002         127.758      3.69494e-65        -179.925      3.69494e-65        -179.925          1.00002         144.579
