! TOUCHSTONE file generated by CST MICROWAVE STUDIO
! Date and time: Fri Feb 16 17:58:35 2024
! Project name: metal_rotado.cst
! Parameters = {angX=1.75; angY=2}
! Header version: 2018
! Port assignment regex: !\s*Touchstone port\s*([0-9]+)\s*=\s*(CST MWS port|CST DS port)\s*([0-9]+|Zmin|Zmax)\s*\(\"(.*)\"\)(\s*mode\s*([0-9]+))?.*
! Touchstone port assignment:
! Touchstone port 1 = CST MWS port 1 ("")
! Touchstone port 2 = CST MWS port 2 ("")
# GHz S MA R 376.7
75                      0.998001        -176.456        0.0626026         93.5552        0.0626314          93.529         0.998024        -176.445
75.035                  0.998091        -176.504        0.0618642         93.5055        0.0618789         93.4861         0.998088        -176.493
75.07                   0.998176        -176.553        0.0611177         93.4554        0.0611191         93.4428          0.99815        -176.542
75.105                  0.998258        -176.601        0.0603616         93.4048        0.0603504         93.3988          0.99821        -176.591
75.14                   0.998336        -176.651        0.0595941         93.3537        0.0595712         93.3542         0.998268         -176.64
75.175                  0.998411          -176.7        0.0588134         93.3019        0.0587794         93.3088         0.998325         -176.69
75.21                   0.998483        -176.751        0.0580172         93.2493        0.0579729         93.2625          0.99838         -176.74
75.245                  0.998552        -176.802         0.057203         93.1958        0.0571491         93.2151         0.998435        -176.791
75.28                   0.998619        -176.854        0.0563677         93.1411         0.056305         93.1665         0.998488        -176.844
75.315                  0.998684        -176.908        0.0555081         93.0851        0.0554372         93.1164         0.998541        -176.897
75.35                   0.998747        -176.962          0.05462         93.0275        0.0545416         93.0647         0.998594        -176.952
75.385                  0.998808        -177.019        0.0536985         92.9681        0.0536135         93.0111         0.998646        -177.009
75.42                   0.998868        -177.078        0.0527381         92.9066         0.052647         92.9552         0.998699        -177.067
75.455                  0.998927        -177.139        0.0517317         92.8425        0.0516353         92.8966         0.998752        -177.128
75.49                   0.998985        -177.203         0.050671         92.7753          0.05057         92.8349         0.998807        -177.192
75.525                  0.999043         -177.27        0.0495454         92.7044        0.0494406         92.7694         0.998862         -177.26
75.56                   0.999102        -177.342        0.0483419         92.6292        0.0482341         92.6994         0.998919        -177.332
75.595                  0.999161         -177.42        0.0470439         92.5486        0.0469339         92.6239         0.998979        -177.409
75.63                   0.999222        -177.503        0.0456302         92.4614        0.0455188         92.5418         0.999041        -177.493
75.665                  0.999286        -177.595        0.0440727         92.3659        0.0439608         92.4514         0.999107        -177.585
75.7                    0.999352        -177.697         0.042334         92.2601        0.0422226         92.3506         0.999178        -177.687
75.735                  0.999423        -177.812        0.0403628         92.1408        0.0402527         92.2364         0.999255        -177.802
75.77                   0.999499        -177.945        0.0380864         92.0038         0.037979         92.1046         0.999338        -177.934
75.805                  0.999582          -178.1        0.0353995          91.843         0.035296         91.9494         0.999431         -178.09
75.84                   0.999673        -178.288        0.0321419         91.6488        0.0320438         91.7614         0.999534        -178.279
75.875                  0.999774        -178.524        0.0280582         91.4057        0.0279674         91.5263          0.99965        -178.514
75.91                   0.999883         -178.83        0.0227152         91.0868        0.0226342         91.2196         0.999777        -178.822
75.945                  0.999991        -179.254        0.0153129         90.6369        0.0152453          90.797         0.999909        -179.247
75.98                    1.00006         -179.89       0.00419376           89.82       0.00414615         90.1864          1.00001        -179.884
76.015                  0.999897         179.031        0.0147242        -90.9565        0.0147363        -90.9483         0.999894         179.034
76.05                   0.998397         176.741        0.0548963        -93.3149        0.0548167         -93.241         0.998484         176.739
76.085                  0.979472         168.402          0.20028        -101.745         0.199606         -101.61         0.979899          168.39
76.12                    0.80289        -143.548          0.59619         126.455         0.599691          126.71         0.800232        -143.273
76.155                  0.981102        -168.902         0.195677         101.106         0.196002         101.181         0.980703        -168.845
76.19                    0.99138        -172.538         0.132934         97.4552         0.133094         97.5219         0.991157          -172.5
76.225                   0.99434        -173.987         0.107764         96.0018          0.10791         96.0609         0.994193        -173.956
76.26                   0.995666        -174.775        0.0940598         95.2148        0.0942274         95.2635         0.995569        -174.747
76.295                  0.996399        -175.277        0.0853379         94.7181        0.0855446         94.7528         0.996343         -175.25
76.33                   0.996857         -175.63        0.0792264         94.3752        0.0794852         94.3913         0.996838        -175.603
76.365                  0.997166        -175.894        0.0746536         94.1247        0.0749767         94.1169         0.997181        -175.868
76.4                    0.997388        -176.104        0.0710675         93.9355        0.0714665         93.8977         0.997435        -176.078
76.435                  0.997554        -176.276        0.0681597         93.7899        0.0686439         93.7158         0.997631         -176.25
76.47                   0.997686        -176.423        0.0657539         93.6761        0.0663263         93.5607         0.997787        -176.396
76.505                  0.997797        -176.552        0.0637619          93.582        0.0644077         93.4261         0.997915        -176.524
76.54                     0.9979        -176.671        0.0621788         93.4866        0.0628422         93.3082         0.998019        -176.641
76.575                  0.998008        -176.789        0.0611315         93.3483        0.0616645          93.203         0.998098        -176.756
76.61                   0.998133        -176.924        0.0611325         93.0957        0.0611533         93.0995          0.99813        -176.885
76.645                   0.99832        -177.218        0.0663067         92.4882        0.0636836         92.9296         0.997926         -177.15
76.68                   0.998934        -176.399        0.0466509         93.7439        0.0465344         93.6775         0.998905         -176.25
76.715                  0.998619        -176.841        0.0525448         93.1847        0.0525635         93.1917         0.998617        -176.789
76.75                   0.998597        -176.963        0.0529011         93.0925        0.0526735         93.0997         0.998524        -176.913
76.785                  0.998595         -177.05         0.052383         93.0239        0.0521296         93.0285         0.998478        -176.998
76.82                   0.998624        -177.126        0.0515683         92.9448         0.051375         92.9515         0.998505        -177.076
76.855                  0.998675        -177.197        0.0506352         92.8604         0.050516         92.8665         0.998593        -177.153
76.89                   0.998738        -177.265        0.0496519         92.7765        0.0495922         92.7783         0.998698        -177.229
76.925                  0.998803        -177.331        0.0486452         92.6958        0.0486244         92.6921         0.998791        -177.303
76.96                   0.998865        -177.396        0.0476246          92.619        0.0476246         92.6111         0.998866        -177.374
76.995                  0.998923        -177.461        0.0465916         92.5457        0.0465997          92.536         0.998927        -177.443
77.03                   0.998976        -177.526        0.0455432         92.4753        0.0455517          92.466         0.998978        -177.511
77.065                  0.999025        -177.592        0.0444747         92.4071        0.0444789         92.3996         0.999025        -177.578
77.1                    0.999071        -177.659        0.0433792           92.34         0.043377         92.3351         0.999069        -177.646
77.135                  0.999116        -177.728        0.0422487         92.2734        0.0422392          92.271         0.999113        -177.716
77.17                   0.999159        -177.799        0.0410733         92.2061        0.0410567         92.2057         0.999157        -177.787
77.205                  0.999202        -177.873        0.0398416         92.1371        0.0398182         92.1378         0.999202        -177.861
77.24                   0.999247        -177.951        0.0385393         92.0652        0.0385101         92.0659         0.999249        -177.938
77.275                  0.999293        -178.034        0.0371491         91.9889        0.0371153         91.9884         0.999298        -178.021
77.31                   0.999343        -178.123        0.0356494          91.906        0.0356124         91.9035          0.99935         -178.11
77.345                  0.999397        -178.221        0.0340124         91.8142        0.0339742         91.8089         0.999406        -178.207
77.38                   0.999457        -178.328        0.0322018         91.7099        0.0321653         91.7018         0.999466        -178.314
77.415                  0.999524        -178.449        0.0301692         91.5884        0.0301385         91.5783         0.999531        -178.434
77.45                   0.999599        -178.586        0.0278485         91.4427        0.0278293         91.4332         0.999603        -178.572
77.485                  0.999684        -178.745        0.0251461         91.2621        0.0251469         91.2591         0.999682        -178.732
77.52                   0.999781        -178.933        0.0219258         91.0286        0.0219583          91.045          0.99977        -178.924
77.555                  0.999891        -179.164        0.0179807         90.7059        0.0180612          90.773         0.999869         -179.16
77.59                    1.00001        -179.455        0.0129802         90.1971        0.0131305          90.408         0.999982        -179.463
77.625                   1.00014        -179.839       0.00636147         88.9695        0.0066086         89.8221          1.00011        -179.878
77.66                    1.00024         179.624       0.00293213          -86.33       0.00254685        -89.5524          1.00021         179.451
77.695                   1.00022         178.809         0.017063         -90.148        0.0165231        -91.1396         0.996645         179.287
77.73                   0.999667         177.404         0.041504        -91.9734        0.0407999          -92.65         0.998542         177.578
77.765                  0.996195         174.347         0.094676        -95.2857        0.0938947        -95.7446         0.995115         174.466
77.8                    0.954886          162.49         0.297262         -107.48         0.297275        -107.664         0.953937         162.511
77.835                  0.813111         -144.62         0.581898         125.391         0.581933         125.364         0.813376        -144.625
77.87                   0.979156        -167.841         0.214335         101.588         0.214329         102.154         0.976798        -167.831
77.905                  0.991438        -171.902         0.144664         97.4621         0.143959         98.0835         0.989589         -171.94
77.94                   0.994349        -173.585         0.115398         96.0512         0.114708         96.3994         0.993396        -173.635
77.975                  0.995442        -174.529         0.098981          95.338        0.0985761         95.4515         0.995129        -174.566
78.01                   0.996073        -175.139        0.0884366         94.8575        0.0882499         94.8248         0.996114        -175.157
78.045                  0.996528        -175.568        0.0810686         94.4943        0.0809978         94.3734         0.996775        -175.568
78.08                   0.996886        -175.888        0.0756011         94.2047        0.0755751         94.0336         0.997312        -175.872
78.115                  0.997181        -176.137        0.0713566         93.9655        0.0713343         93.7717         0.997863        -176.111
78.15                   0.997432        -176.337         0.067944         93.7625        0.0679044         93.5663         0.998349        -176.321
78.185                  0.997652        -176.502        0.0651222         93.5863        0.0650562         93.4031         0.998392        -176.502
78.22                   0.997846        -176.642         0.062735         93.4305          0.06264         93.2715         0.998303        -176.643
78.255                  0.998022        -176.762        0.0606767         93.2905        0.0605534         93.1641         0.998288        -176.758
78.29                    0.99818        -176.866         0.058873         93.1629        0.0587238         93.0756         0.998319        -176.858
78.325                  0.998324        -176.959        0.0572705         93.0452        0.0570985         93.0019         0.998368        -176.948
78.36                   0.998455        -177.041        0.0558298         92.9354         0.055638         92.9403         0.998422        -177.029
78.395                  0.998573        -177.116        0.0545209         92.8321        0.0543124         92.8885         0.998476        -177.102
78.43                   0.998679        -177.184        0.0533207         92.7338        0.0530984         92.8452         0.998528         -177.17
78.465                  0.998775        -177.246        0.0522113         92.6397        0.0519778         92.8091         0.998577        -177.233
78.5                     0.99886        -177.304        0.0511782         92.5486        0.0509361         92.7795         0.998623        -177.291
78.535                  0.998935        -177.358          0.05021         92.4599        0.0499614         92.7557         0.998667        -177.346
78.57                   0.999001        -177.409        0.0492973         92.3728        0.0490442         92.7375         0.998708        -177.398
78.605                  0.999059        -177.457        0.0484321         92.2865        0.0481766         92.7247         0.998747        -177.447
78.64                   0.999109        -177.502        0.0476081         92.2004         0.047352         92.7172         0.998784        -177.494
78.675                  0.999153        -177.545        0.0468199         92.1138        0.0465649          92.715          0.99882        -177.539
78.71                   0.999191        -177.587        0.0460627         92.0259        0.0458108         92.7184         0.998853        -177.582
78.745                  0.999224        -177.627        0.0453327         91.9359        0.0450858         92.7277         0.998885        -177.623
78.78                   0.999253        -177.666        0.0446264         91.8429        0.0443864         92.7432         0.998916        -177.664
78.815                  0.999278        -177.703        0.0439409         91.7459          0.04371         92.7656         0.998945        -177.703
78.85                   0.999299         -177.74        0.0432737         91.6436        0.0430542         92.7956         0.998974        -177.741
78.885                  0.999318        -177.776        0.0426225         91.5346        0.0424172          92.834         0.999001        -177.778
78.92                   0.999334        -177.811        0.0419855          91.417        0.0417973         92.8819         0.999028        -177.814
78.955                  0.999349        -177.845        0.0413612         91.2888        0.0411934         92.9404         0.999054        -177.849
78.99                   0.999362        -177.879        0.0407484         91.1471        0.0406049         93.0109         0.999079        -177.884
79.025                  0.999373        -177.912        0.0401464         90.9883        0.0400316         93.0951         0.999103        -177.918
79.06                   0.999383        -177.945        0.0395552         90.8082        0.0394739         93.1944         0.999127        -177.952
79.095                  0.999393        -177.978        0.0389757          90.601        0.0389327         93.3107         0.999151        -177.985
79.13                   0.999401         -178.01        0.0384102         90.3597          0.03841         93.4452         0.999173        -178.018
79.165                  0.999409        -178.042        0.0378635          90.076        0.0379087         93.5985         0.999196        -178.051
79.2                    0.999417        -178.074        0.0373442         89.7407        0.0374328         93.7697         0.999218        -178.083
79.235                  0.999424        -178.106        0.0368664         89.3463        0.0369877         93.9551         0.999239        -178.116
79.27                   0.999431        -178.137         0.036453         88.8937        0.0365793         94.1462         0.999261        -178.148
79.305                  0.999438        -178.169        0.0361353         88.4057        0.0362131         94.3278         0.999281        -178.179
79.34                   0.999444          -178.2        0.0359469         87.9498        0.0358922         94.4764         0.999302        -178.211
79.375                   0.99945        -178.232         0.035897         87.6563        0.0356133         94.5601         0.999322        -178.243
79.41                   0.999457        -178.263        0.0359277         87.6815        0.0353629         94.5449         0.999343        -178.275
79.445                  0.999463        -178.295        0.0359046         88.0901        0.0351163          94.405         0.999362        -178.306
79.48                   0.999469        -178.326        0.0356972          88.765        0.0348413          94.136         0.999382        -178.338
79.515                  0.999476        -178.358        0.0352738         89.4951        0.0345086         93.7612         0.999401         -178.37
79.55                   0.999482         -178.39        0.0346909         90.1268        0.0341014         93.3239         0.999421        -178.402
