! TOUCHSTONE file generated by CST MICROWAVE STUDIO
! Date and time: Wed Feb 21 23:55:44 2024
! Project name: aire_des.cst
! Header version: 2018
! Port assignment regex: !\s*Touchstone port\s*([0-9]+)\s*=\s*(CST MWS port|CST DS port)\s*([0-9]+|Zmin|Zmax)\s*\(\"(.*)\"\)(\s*mode\s*([0-9]+))?.*
! Touchstone port assignment:
! Touchstone port 1 = CST MWS port 1 ("")
! Touchstone port 2 = CST MWS port 2 ("")
# GHz S MA R 376.7
60                      0.200623        -95.8949         0.843285         176.376         0.843776          176.38         0.200423        -95.8195
60.01                   0.200245        -95.2601         0.846161         176.277         0.846653         176.282          0.20014        -95.1813
60.02                   0.200104        -94.5625         0.849192         176.165         0.849685         176.172         0.200083        -94.4852
60.03                   0.200245        -93.8064         0.852373          176.04         0.852867         176.048         0.200292        -93.7345
60.04                   0.200717        -92.9988           0.8557         175.899         0.856192         175.907         0.200814        -92.9354
60.05                   0.201569        -92.1501         0.859163          175.74         0.859649         175.749         0.201695        -92.0967
60.06                   0.202849        -91.2738         0.862747         175.562         0.863219          175.57         0.202981        -91.2303
60.07                   0.204602        -90.3871         0.866431         175.363          0.86688         175.369         0.204719        -90.3514
60.08                   0.206865          -89.51         0.870189         175.139         0.870604         175.144         0.206946        -89.4782
60.09                   0.209665        -88.6651         0.873985          174.89         0.874352         174.893         0.209696        -88.6317
60.1                    0.213017        -87.8759         0.877776         174.614         0.878082         174.615         0.212988        -87.8342
60.11                   0.216919        -87.1664         0.881513         174.309         0.881742         174.309          0.21683        -87.1091
60.12                   0.221351        -86.5586         0.885136         173.974         0.885273         173.973         0.221209        -86.4788
60.13                   0.226275        -86.0719         0.888579         173.609         0.888613         173.608         0.226097        -85.9637
60.14                   0.231634        -85.7215         0.891773         173.214         0.891691         173.215         0.231447        -85.5808
60.15                   0.237355        -85.5175         0.894642         172.791         0.894439         172.794         0.237191        -85.3425
60.16                   0.243355        -85.4647         0.897111         172.341         0.896787         172.348          0.24325        -85.2564
60.17                   0.249539        -85.5628         0.899111         171.867         0.898671          171.88          0.24953        -85.3242
60.18                   0.255812        -85.8064         0.900578         171.374         0.900033         171.394         0.255933        -85.5429
60.19                   0.262078        -86.1862         0.901459         170.866         0.900828         170.894         0.262359        -85.9046
60.2                     0.26825        -86.6896         0.901716         170.347         0.901025         170.385         0.268711        -86.3979
60.21                   0.274247        -87.3022          0.90133         169.825         0.900608         169.872         0.274899        -87.0084
60.22                   0.280004        -88.0082           0.9003         169.304         0.899577         169.362         0.280848        -87.7202
60.23                   0.285468        -88.7918         0.898641          168.79         0.897951         168.858         0.286495        -88.5166
60.24                   0.290598        -89.6376          0.89639         168.288         0.895762         168.366         0.291793        -89.3811
60.25                   0.295371        -90.5309         0.893596         167.804         0.893056          167.89         0.296708        -90.2978
60.26                   0.299773        -91.4588         0.890319         167.341          0.88989         167.434         0.301225        -91.2522
60.27                   0.303801        -92.4096         0.886629         166.903         0.886324             167         0.305338        -92.2313
60.28                   0.307463        -93.3733         0.882597         166.491         0.882426         166.592         0.309052         -93.224
60.29                   0.310771        -94.3416         0.878297         166.107         0.878262         166.209         0.312383        -94.2208
60.3                    0.313743        -95.3074         0.873798         165.752         0.873895         165.853         0.315348        -95.2138
60.31                   0.316402        -96.2653         0.869166         165.425         0.869385         165.524         0.317974        -96.1968
60.32                    0.31877         -97.211         0.864457         165.126         0.864785         165.221         0.320287        -97.1651
60.33                   0.320871        -98.1411         0.859723         164.853         0.860145         164.943         0.322314        -98.1149
60.34                   0.322731        -99.0533         0.855006         164.605         0.855504         164.689         0.324085        -99.0438
60.35                   0.324372         -99.946         0.850342         164.381         0.850896         164.458         0.325625        -99.9499
60.36                   0.325817        -100.818         0.845758         164.177          0.84635         164.248         0.326961        -100.832
60.37                   0.327087        -101.669         0.841276         163.994         0.841887         164.056         0.328117         -101.69
60.38                   0.328203        -102.498         0.836912         163.827         0.837524         163.882         0.329115        -102.524
60.39                    0.32918        -103.307         0.832676         163.677         0.833273         163.724         0.329976        -103.334
60.4                    0.330037        -104.094         0.828574          163.54         0.829142          163.58         0.330717        -104.121
60.41                   0.330788        -104.862         0.824611         163.415         0.825135         163.449         0.331355        -104.885
60.42                   0.331445         -105.61         0.820786         163.302         0.821256         163.329         0.331905        -105.627
60.43                   0.332021        -106.338         0.817099         163.197         0.817504         163.219          0.33238        -106.348
60.44                   0.332526        -107.049         0.813545         163.101         0.813878         163.117         0.332791         -107.05
60.45                    0.33297        -107.743         0.810121         163.012         0.810375         163.023         0.333148        -107.733
60.46                    0.33336         -108.42         0.806821         162.929         0.806991         162.936          0.33346        -108.398
60.47                   0.333704        -109.081          0.80364         162.851         0.803721         162.855         0.333734        -109.047
60.48                   0.334009        -109.728          0.80057         162.778         0.800561         162.778         0.333977         -109.68
60.49                   0.334279        -110.361         0.797607         162.708         0.797505         162.706         0.334196        -110.298
60.5                     0.33452         -110.98         0.794743         162.641         0.794548         162.638         0.334394        -110.903
60.51                   0.334736        -111.588         0.791973         162.577         0.791685         162.572         0.334577        -111.495
60.52                   0.334932        -112.183         0.789289         162.514         0.788909          162.51         0.334748        -112.074
60.53                   0.335109        -112.767         0.786687         162.454         0.786216          162.45          0.33491        -112.643
60.54                   0.335272        -113.341          0.78416         162.395           0.7836         162.391         0.335066        -113.201
60.55                   0.335423        -113.905         0.781702         162.337         0.781056         162.334         0.335219         -113.75
60.56                   0.335563         -114.46          0.77931          162.28          0.77858         162.279          0.33537        -114.289
60.57                   0.335695        -115.006         0.776977         162.223         0.776167         162.224         0.335521         -114.82
60.58                   0.335821        -115.544         0.774699         162.167         0.773812         162.171         0.335673        -115.344
60.59                   0.335941        -116.074         0.772471         162.111         0.771512         162.118         0.335828         -115.86
60.6                    0.336058        -116.597         0.770291         162.056         0.769262         162.065         0.335987         -116.37
60.61                   0.336172        -117.113         0.768153         162.001         0.767059         162.013         0.336149        -116.874
60.62                   0.336284        -117.622         0.766054         161.945         0.764899         161.962         0.336316        -117.372
60.63                   0.336395        -118.126         0.763991          161.89          0.76278         161.911         0.336489        -117.865
60.64                   0.336506        -118.623         0.761961         161.834         0.760698          161.86         0.336666        -118.354
60.65                   0.336617        -119.115          0.75996         161.779          0.75865         161.809         0.336849        -118.838
60.66                   0.336729        -119.602         0.757987         161.723         0.756634         161.758         0.337037        -119.319
60.67                   0.336841        -120.085         0.756039         161.668         0.754648         161.707          0.33723        -119.795
60.68                   0.336956        -120.562         0.754113         161.612         0.752688         161.656         0.337427        -120.269
60.69                   0.337072        -121.036         0.752207         161.556         0.750753         161.605         0.337628         -120.74
60.7                     0.33719        -121.505         0.750319         161.499         0.748842         161.555         0.337833        -121.209
60.71                    0.33731         -121.97         0.748448         161.443         0.746951         161.504         0.338041        -121.675
60.72                   0.337433        -122.432         0.746591         161.387          0.74508         161.453         0.338251        -122.139
60.73                   0.337558         -122.89         0.744747          161.33         0.743227         161.402         0.338461        -122.601
60.74                   0.337685        -123.344         0.742915         161.274          0.74139         161.352         0.338672        -123.062
60.75                   0.337815        -123.796         0.741094         161.217         0.739569         161.301         0.338881        -123.521
60.76                   0.337948        -124.245         0.739281         161.161         0.737762         161.251         0.339088        -123.979
60.77                   0.338083        -124.691         0.737476         161.104         0.735968           161.2         0.339291        -124.436
60.78                   0.338221        -125.134         0.735679         161.048         0.734187          161.15          0.33949        -124.891
60.79                   0.338361        -125.574         0.733887         160.992         0.732417           161.1         0.339682        -125.345
60.8                    0.338504        -126.013           0.7321         160.936         0.730658          161.05         0.339867        -125.798
60.81                    0.33865        -126.448         0.730317          160.88         0.728909             161         0.340044        -126.249
60.82                   0.338797        -126.882         0.728538         160.824         0.727171         160.951         0.340212        -126.699
60.83                   0.338947        -127.313         0.726762         160.769         0.725442         160.902         0.340369        -127.147
60.84                     0.3391        -127.743         0.724988         160.714         0.723724         160.853         0.340516        -127.593
60.85                   0.339254         -128.17         0.723216         160.659         0.722016         160.804         0.340652        -128.037
60.86                   0.339411        -128.595         0.721445         160.605         0.720318         160.756         0.340778        -128.479
60.87                   0.339569        -129.019         0.719675         160.551         0.718631         160.708         0.340893        -128.918
60.88                    0.33973        -129.441         0.717906         160.498         0.716957          160.66         0.340998        -129.354
60.89                   0.339892        -129.861         0.716137         160.445         0.715295         160.612         0.341095        -129.787
60.9                    0.340056         -130.28         0.714367         160.393         0.713649         160.564         0.341184        -130.217
60.91                   0.340222        -130.697         0.712597         160.341         0.712019         160.517         0.341267        -130.643
60.92                   0.340389        -131.112         0.710827          160.29         0.710407         160.468         0.341346        -131.066
60.93                   0.340557        -131.526         0.709056          160.24         0.708813         160.419         0.341422        -131.485
60.94                   0.340728        -131.939         0.707284          160.19         0.707238         160.368         0.341497        -131.901
60.95                   0.340899         -132.35         0.705511         160.142         0.705676         160.315         0.341573        -132.314
60.96                   0.341072        -132.759         0.703738         160.094         0.704121         160.258         0.341653        -132.723
60.97                   0.341246        -133.168         0.701963         160.046         0.702553         160.196         0.341736        -133.128
60.98                   0.341421        -133.575         0.700187             160         0.700948         160.131         0.341825        -133.531
60.99                   0.341597        -133.981          0.69841         159.955         0.699274         160.061         0.341922        -133.931
61                      0.341774        -134.385         0.696633          159.91         0.697504          159.99         0.342025        -134.328
61.01                   0.341952        -134.788         0.694854         159.867         0.695631         159.921         0.342138        -134.723
61.02                   0.342131         -135.19         0.693075         159.825         0.693674         159.858         0.342259        -135.116
61.03                   0.342309        -135.591         0.691296         159.783          0.69167         159.803         0.342388        -135.507
61.04                   0.342489        -135.991         0.689516         159.743         0.689658         159.755         0.342527        -135.896
61.05                   0.342668        -136.389         0.687737         159.704         0.687665         159.715         0.342674        -136.284
61.06                   0.342848        -136.787         0.685957         159.666         0.685707         159.679         0.342831         -136.67
61.07                   0.343029        -137.182         0.684178          159.63         0.683786         159.647         0.342995        -137.055
61.08                    0.34321        -137.577           0.6824         159.594         0.681902         159.618         0.343168        -137.439
61.09                   0.343392        -137.971         0.680623          159.56         0.680048          159.59         0.343348        -137.823
61.1                    0.343574        -138.363         0.678847         159.527          0.67822         159.563         0.343534        -138.205
61.11                   0.343756        -138.754         0.677073         159.496         0.676414         159.538         0.343727        -138.587
61.12                   0.343939        -139.144         0.675301         159.466         0.674626         159.513         0.343926        -138.969
61.13                   0.344123        -139.532         0.673531         159.437         0.672852         159.489          0.34413         -139.35
61.14                   0.344308         -139.92         0.671764         159.409          0.67109         159.465         0.344337        -139.731
61.15                   0.344493        -140.306         0.670001         159.383         0.669338         159.443         0.344549        -140.111
61.16                   0.344679        -140.691         0.668242         159.359         0.667596         159.421         0.344763        -140.491
61.17                   0.344866        -141.074         0.666487         159.335         0.665863           159.4          0.34498         -140.87
61.18                   0.345054        -141.457         0.664737         159.314         0.664137         159.381         0.345198         -141.25
61.19                   0.345243        -141.838         0.662992         159.294         0.662419         159.362         0.345417        -141.629
61.2                    0.345432        -142.218         0.661253         159.275         0.660708         159.344         0.345637        -142.007
61.21                   0.345623        -142.597          0.65952         159.258         0.659005         159.327         0.345856        -142.385
61.22                   0.345815        -142.974         0.657794         159.242         0.657309         159.311         0.346075        -142.763
61.23                   0.346008        -143.351         0.656076         159.228         0.655621         159.297         0.346292         -143.14
61.24                   0.346202        -143.726         0.654366         159.216         0.653941         159.284         0.346508        -143.517
61.25                   0.346396          -144.1         0.652664         159.204         0.652269         159.271         0.346722        -143.893
61.26                   0.346592        -144.473         0.650972         159.195         0.650606          159.26         0.346932        -144.269
61.27                   0.346789        -144.845         0.649291         159.187         0.648953          159.25          0.34714        -144.644
61.28                   0.346987        -145.215         0.647619         159.181         0.647309         159.242         0.347344        -145.018
61.29                   0.347185        -145.585         0.645959         159.176         0.645676         159.235         0.347544        -145.391
61.3                    0.347383        -145.954         0.644311         159.173         0.644054         159.228          0.34774        -145.763
