! TOUCHSTONE file generated by CST MICROWAVE STUDIO
! Date and time: Sat Feb 17 14:29:58 2024
! Project name: MUT_rotado.cst
! Parameters = {AngX=0.25}
! Header version: 2018
! Port assignment regex: !\s*Touchstone port\s*([0-9]+)\s*=\s*(CST MWS port|CST DS port)\s*([0-9]+|Zmin|Zmax)\s*\(\"(.*)\"\)(\s*mode\s*([0-9]+))?.*
! Touchstone port assignment:
! Touchstone port 1 = CST MWS port 1 ("")
! Touchstone port 2 = CST MWS port 2 ("")
# GHz S MA R 376.7
60                      0.110383        -105.891         0.993842         160.945         0.993939         160.939         0.110334        -112.183
60.01                   0.110563        -105.925         0.993823         160.911          0.99392         160.905         0.110515        -112.216
60.02                   0.110743        -105.958         0.993803         160.877           0.9939         160.871         0.110695        -112.249
60.03                   0.110923        -105.992         0.993784         160.843         0.993881         160.837         0.110876        -112.282
60.04                   0.111103        -106.025         0.993764         160.809         0.993861         160.803         0.111056        -112.315
60.05                   0.111284        -106.059         0.993744         160.775         0.993841         160.768         0.111237        -112.348
60.06                   0.111464        -106.092         0.993724         160.741         0.993821         160.734         0.111417        -112.381
60.07                   0.111644        -106.126         0.993705         160.706         0.993801           160.7         0.111598        -112.414
60.08                   0.111824        -106.159         0.993685         160.672         0.993782         160.666         0.111778        -112.447
60.09                   0.112005        -106.193         0.993665         160.638         0.993762         160.632         0.111959         -112.48
60.1                    0.112185        -106.227         0.993645         160.604         0.993742         160.597          0.11214        -112.513
60.11                   0.112365         -106.26         0.993625          160.57         0.993722         160.563          0.11232        -112.546
60.12                   0.112546        -106.294         0.993605         160.536         0.993702         160.529         0.112501         -112.58
60.13                   0.112726        -106.327         0.993585         160.502         0.993681         160.495         0.112682        -112.613
60.14                   0.112907        -106.361         0.993565         160.467         0.993661         160.461         0.112862        -112.646
60.15                   0.113087        -106.395         0.993545         160.433         0.993641         160.426         0.113043        -112.679
60.16                   0.113268        -106.428         0.993525         160.399         0.993621         160.392         0.113224        -112.712
60.17                   0.113448        -106.462         0.993505         160.365           0.9936         160.358         0.113405        -112.745
60.18                   0.113629        -106.496         0.993484         160.331          0.99358         160.324         0.113585        -112.779
60.19                   0.113809        -106.529         0.993464         160.297          0.99356          160.29         0.113766        -112.812
60.2                     0.11399        -106.563         0.993444         160.263         0.993539         160.256         0.113947        -112.845
60.21                    0.11417        -106.597         0.993423         160.229         0.993519         160.221         0.114128        -112.878
60.22                   0.114351         -106.63         0.993403         160.194         0.993498         160.187         0.114309        -112.912
60.23                   0.114532        -106.664         0.993383          160.16         0.993478         160.153          0.11449        -112.945
60.24                   0.114712        -106.698         0.993362         160.126         0.993457         160.119         0.114671        -112.978
60.25                   0.114893        -106.732         0.993342         160.092         0.993436         160.085         0.114852        -113.012
60.26                   0.115074        -106.765         0.993321         160.058         0.993415          160.05         0.115033        -113.045
60.27                   0.115254        -106.799         0.993301         160.024         0.993395         160.016         0.115214        -113.078
60.28                   0.115435        -106.833          0.99328          159.99         0.993374         159.982         0.115395        -113.112
60.29                   0.115616        -106.867         0.993259         159.955         0.993353         159.948         0.115576        -113.145
60.3                    0.115797          -106.9         0.993239         159.921         0.993332         159.914         0.115757        -113.178
60.31                   0.115978        -106.934         0.993218         159.887         0.993311          159.88         0.115938        -113.212
60.32                   0.116159        -106.968         0.993197         159.853          0.99329         159.845          0.11612        -113.245
60.33                   0.116339        -107.002         0.993176         159.819         0.993269         159.811         0.116301        -113.278
60.34                    0.11652        -107.035         0.993155         159.785         0.993248         159.777         0.116482        -113.312
60.35                   0.116701        -107.069         0.993135         159.751         0.993227         159.743         0.116663        -113.345
60.36                   0.116882        -107.103         0.993114         159.717         0.993206         159.709         0.116844        -113.379
60.37                   0.117063        -107.137         0.993093         159.682         0.993184         159.675         0.117026        -113.412
60.38                   0.117244        -107.171         0.993072         159.648         0.993163         159.641         0.117207        -113.446
60.39                   0.117425        -107.205         0.993051         159.614         0.993142         159.606         0.117388        -113.479
60.4                    0.117606        -107.238         0.993029          159.58          0.99312         159.572          0.11757        -113.513
60.41                   0.117787        -107.272         0.993008         159.546         0.993099         159.538         0.117751        -113.546
60.42                   0.117969        -107.306         0.992987         159.512         0.993077         159.504         0.117933         -113.58
60.43                    0.11815         -107.34         0.992966         159.478         0.993056          159.47         0.118114        -113.613
60.44                   0.118331        -107.374         0.992945         159.444         0.993034         159.436         0.118295        -113.647
60.45                   0.118512        -107.408         0.992923         159.409         0.993013         159.402         0.118477         -113.68
60.46                   0.118693        -107.442         0.992902         159.375         0.992991         159.367         0.118658        -113.714
60.47                   0.118874        -107.475         0.992881         159.341          0.99297         159.333          0.11884        -113.748
60.48                   0.119056        -107.509         0.992859         159.307         0.992948         159.299         0.119021        -113.781
60.49                   0.119237        -107.543         0.992838         159.273         0.992926         159.265         0.119203        -113.815
60.5                    0.119418        -107.577         0.992816         159.239         0.992904         159.231         0.119384        -113.849
60.51                   0.119599        -107.611         0.992795         159.205         0.992882         159.197         0.119566        -113.882
60.52                   0.119781        -107.645         0.992773         159.171          0.99286         159.163         0.119748        -113.916
60.53                   0.119962        -107.679         0.992752         159.137         0.992838         159.128         0.119929         -113.95
60.54                   0.120143        -107.713          0.99273         159.102         0.992816         159.094         0.120111        -113.983
60.55                   0.120325        -107.747         0.992708         159.068         0.992794          159.06         0.120293        -114.017
60.56                   0.120506        -107.781         0.992687         159.034         0.992772         159.026         0.120474        -114.051
60.57                   0.120688        -107.815         0.992665             159          0.99275         158.992         0.120656        -114.084
60.58                   0.120869        -107.849         0.992643         158.966         0.992728         158.958         0.120838        -114.118
60.59                   0.121051        -107.883         0.992621         158.932         0.992706         158.924         0.121019        -114.152
60.6                    0.121232        -107.917         0.992599         158.898         0.992684          158.89         0.121201        -114.186
60.61                   0.121414        -107.951         0.992577         158.864         0.992661         158.856         0.121383        -114.219
60.62                   0.121595        -107.985         0.992555          158.83         0.992639         158.821         0.121565        -114.253
60.63                   0.121777        -108.019         0.992533         158.795         0.992617         158.787         0.121747        -114.287
60.64                   0.121958        -108.053         0.992511         158.761         0.992594         158.753         0.121929        -114.321
60.65                    0.12214        -108.087         0.992489         158.727         0.992572         158.719          0.12211        -114.354
60.66                   0.122321        -108.121         0.992467         158.693         0.992549         158.685         0.122292        -114.388
60.67                   0.122503        -108.155         0.992445         158.659         0.992527         158.651         0.122474        -114.422
60.68                   0.122685        -108.189         0.992423         158.625         0.992504         158.617         0.122656        -114.456
60.69                   0.122866        -108.223         0.992401         158.591         0.992481         158.583         0.122838         -114.49
60.7                    0.123048        -108.257         0.992378         158.557         0.992459         158.549          0.12302        -114.524
60.71                    0.12323        -108.291         0.992356         158.523         0.992436         158.515         0.123202        -114.558
60.72                   0.123411        -108.325         0.992334         158.489         0.992413          158.48         0.123384        -114.591
60.73                   0.123593        -108.359         0.992311         158.454          0.99239         158.446         0.123566        -114.625
60.74                   0.123775        -108.393         0.992289          158.42         0.992367         158.412         0.123748        -114.659
60.75                   0.123957        -108.427         0.992267         158.386         0.992345         158.378          0.12393        -114.693
60.76                   0.124138        -108.461         0.992244         158.352         0.992322         158.344         0.124112        -114.727
60.77                    0.12432        -108.495         0.992221         158.318         0.992299          158.31         0.124294        -114.761
60.78                   0.124502        -108.529         0.992199         158.284         0.992276         158.276         0.124476        -114.795
60.79                   0.124684        -108.563         0.992176          158.25         0.992253         158.242         0.124658        -114.829
60.8                    0.124866        -108.597         0.992154         158.216         0.992229         158.208         0.124841        -114.863
60.81                   0.125048        -108.631         0.992131         158.182         0.992206         158.174         0.125023        -114.897
60.82                    0.12523        -108.666         0.992108         158.148         0.992183          158.14         0.125205        -114.931
60.83                   0.125411          -108.7         0.992085         158.114          0.99216         158.106         0.125387        -114.965
60.84                   0.125593        -108.734         0.992063          158.08         0.992137         158.071         0.125569        -114.999
60.85                   0.125775        -108.768          0.99204         158.045         0.992113         158.037         0.125752        -115.033
60.86                   0.125957        -108.802         0.992017         158.011          0.99209         158.003         0.125934        -115.067
60.87                   0.126139        -108.836         0.991994         157.977         0.992066         157.969         0.126116        -115.101
60.88                   0.126321         -108.87         0.991971         157.943         0.992043         157.935         0.126298        -115.135
60.89                   0.126503        -108.904         0.991948         157.909         0.992019         157.901         0.126481        -115.169
60.9                    0.126685        -108.939         0.991925         157.875         0.991996         157.867         0.126663        -115.203
60.91                   0.126867        -108.973         0.991902         157.841         0.991972         157.833         0.126845        -115.237
60.92                   0.127049        -109.007         0.991879         157.807         0.991949         157.799         0.127028        -115.272
60.93                   0.127232        -109.041         0.991856         157.773         0.991925         157.765          0.12721        -115.306
60.94                   0.127414        -109.075         0.991833         157.739         0.991901         157.731         0.127392         -115.34
60.95                   0.127596        -109.109         0.991809         157.705         0.991878         157.697         0.127575        -115.374
60.96                   0.127778        -109.144         0.991786         157.671         0.991854         157.663         0.127757        -115.408
60.97                    0.12796        -109.178         0.991763         157.637          0.99183         157.629         0.127939        -115.442
60.98                   0.128142        -109.212         0.991739         157.602         0.991806         157.595         0.128122        -115.476
60.99                   0.128324        -109.246         0.991716         157.568         0.991782         157.561         0.128304        -115.511
61                      0.128507         -109.28         0.991693         157.534         0.991758         157.527         0.128487        -115.545
61.01                   0.128689        -109.315         0.991669           157.5         0.991734         157.493         0.128669        -115.579
61.02                   0.128871        -109.349         0.991646         157.466          0.99171         157.459         0.128852        -115.613
61.03                   0.129053        -109.383         0.991622         157.432         0.991686         157.425         0.129034        -115.647
61.04                   0.129236        -109.417         0.991599         157.398         0.991662         157.391         0.129217        -115.682
61.05                   0.129418        -109.451         0.991575         157.364         0.991638         157.357         0.129399        -115.716
61.06                     0.1296        -109.486         0.991551          157.33         0.991614         157.322         0.129582         -115.75
61.07                   0.129783         -109.52         0.991528         157.296          0.99159         157.288         0.129764        -115.784
61.08                   0.129965        -109.554         0.991504         157.262         0.991565         157.254         0.129947        -115.819
61.09                   0.130147        -109.588          0.99148         157.228         0.991541          157.22          0.13013        -115.853
61.1                     0.13033        -109.623         0.991456         157.194         0.991517         157.186         0.130312        -115.887
61.11                   0.130512        -109.657         0.991433          157.16         0.991492         157.152         0.130495        -115.922
61.12                   0.130694        -109.691         0.991409         157.126         0.991468         157.118         0.130677        -115.956
61.13                   0.130877        -109.725         0.991385         157.092         0.991443         157.084          0.13086         -115.99
61.14                   0.131059         -109.76         0.991361         157.058         0.991419          157.05         0.131043        -116.024
61.15                   0.131242        -109.794         0.991337         157.024         0.991394         157.016         0.131225        -116.059
61.16                   0.131424        -109.828         0.991313         156.989          0.99137         156.982         0.131408        -116.093
61.17                   0.131607        -109.862         0.991289         156.955         0.991345         156.948         0.131591        -116.127
61.18                   0.131789        -109.897         0.991265         156.921         0.991321         156.914         0.131773        -116.162
61.19                   0.131972        -109.931         0.991241         156.887         0.991296          156.88         0.131956        -116.196
61.2                    0.132154        -109.965         0.991217         156.853         0.991271         156.846         0.132139        -116.231
61.21                   0.132337            -110         0.991192         156.819         0.991246         156.812         0.132322        -116.265
61.22                   0.132519        -110.034         0.991168         156.785         0.991222         156.778         0.132504        -116.299
61.23                   0.132702        -110.068         0.991144         156.751         0.991197         156.744         0.132687        -116.334
61.24                   0.132884        -110.102          0.99112         156.717         0.991172          156.71          0.13287        -116.368
61.25                   0.133067        -110.137         0.991095         156.683         0.991147         156.676         0.133053        -116.403
61.26                   0.133249        -110.171         0.991071         156.649         0.991122         156.642         0.133236        -116.437
61.27                   0.133432        -110.205         0.991046         156.615         0.991097         156.608         0.133418        -116.471
61.28                   0.133615         -110.24         0.991022         156.581         0.991072         156.574         0.133601        -116.506
61.29                   0.133797        -110.274         0.990997         156.547         0.991047         156.541         0.133784         -116.54
61.3                     0.13398        -110.308         0.990973         156.513         0.991022         156.507         0.133967        -116.575
