! TOUCHSTONE file generated by CST MICROWAVE STUDIO
! Date and time: Wed Feb 21 09:08:40 2024
! Project name: material_prueba.cst
! Parameters = {Y=1}
! Header version: 2018
! Port assignment regex: !\s*Touchstone port\s*([0-9]+)\s*=\s*(CST MWS port|CST DS port)\s*([0-9]+|Zmin|Zmax)\s*\(\"(.*)\"\)(\s*mode\s*([0-9]+))?.*
! Touchstone port assignment:
! Touchstone port 1 = CST MWS port 1 ("")
! Touchstone port 2 = CST MWS port 2 ("")
# GHz S MA R 376.7
60                      0.106929        -119.897         0.994291         161.617         0.994111         161.652         0.107203        -96.8548
60.01                   0.107089        -119.934         0.994286         161.581         0.994112         161.616         0.107387        -96.8988
60.02                    0.10725         -119.97         0.994281         161.546         0.994113          161.58         0.107571        -96.9428
60.03                    0.10741        -120.007         0.994276          161.51         0.994114         161.543         0.107755        -96.9867
60.04                   0.107571        -120.043         0.994271         161.474         0.994115         161.507         0.107938        -97.0305
60.05                   0.107732         -120.08         0.994265         161.438         0.994115         161.471         0.108122        -97.0742
60.06                   0.107893        -120.117         0.994259         161.403         0.994115         161.435         0.108305        -97.1178
60.07                   0.108054        -120.153         0.994253         161.367         0.994114         161.399         0.108488        -97.1614
60.08                   0.108215         -120.19         0.994246         161.331         0.994114         161.363          0.10867        -97.2048
60.09                   0.108376        -120.226          0.99424         161.296         0.994113         161.326         0.108853        -97.2482
60.1                    0.108538        -120.263         0.994233          161.26         0.994111          161.29         0.109035        -97.2915
60.11                   0.108699          -120.3         0.994226         161.225          0.99411         161.254         0.109218        -97.3347
60.12                    0.10886        -120.336         0.994218         161.189         0.994108         161.218           0.1094        -97.3779
60.13                   0.109022        -120.373         0.994211         161.153         0.994105         161.182         0.109581        -97.4209
60.14                   0.109184         -120.41         0.994203         161.118         0.994103         161.146         0.109763        -97.4639
60.15                   0.109345        -120.447         0.994195         161.082           0.9941          161.11         0.109944        -97.5067
60.16                   0.109507        -120.483         0.994187         161.047         0.994097         161.074         0.110125        -97.5495
60.17                   0.109669         -120.52         0.994179         161.011         0.994093         161.038         0.110306        -97.5922
60.18                   0.109831        -120.557          0.99417         160.976         0.994089         161.002         0.110487        -97.6349
60.19                   0.109993        -120.594         0.994161          160.94         0.994085         160.967         0.110668        -97.6774
60.2                    0.110155         -120.63         0.994152         160.905         0.994081         160.931         0.110848        -97.7198
60.21                   0.110318        -120.667         0.994143          160.87         0.994076         160.895         0.111028        -97.7622
60.22                    0.11048        -120.704         0.994133         160.834         0.994071         160.859         0.111208        -97.8044
60.23                   0.110642        -120.741         0.994124         160.799         0.994066         160.823         0.111388        -97.8466
60.24                   0.110805        -120.778         0.994114         160.763         0.994061         160.787         0.111567        -97.8887
60.25                   0.110967        -120.815         0.994104         160.728         0.994055         160.752         0.111746        -97.9307
60.26                    0.11113        -120.852         0.994094         160.693         0.994049         160.716         0.111925        -97.9726
60.27                   0.111293        -120.888         0.994083         160.658         0.994043          160.68         0.112104        -98.0144
60.28                   0.111456        -120.925         0.994072         160.622         0.994036         160.645         0.112283        -98.0561
60.29                   0.111619        -120.962         0.994062         160.587         0.994029         160.609         0.112461        -98.0977
60.3                    0.111782        -120.999         0.994051         160.552         0.994022         160.573          0.11264        -98.1393
60.31                   0.111945        -121.036         0.994039         160.517         0.994015         160.538         0.112818        -98.1807
60.32                   0.112108        -121.073         0.994028         160.481         0.994007         160.502         0.112995         -98.222
60.33                   0.112271         -121.11         0.994016         160.446         0.993999         160.466         0.113173        -98.2633
60.34                   0.112435        -121.147         0.994004         160.411         0.993991         160.431          0.11335        -98.3044
60.35                   0.112598        -121.184         0.993992         160.376         0.993983         160.395         0.113527        -98.3455
60.36                   0.112762        -121.221          0.99398         160.341         0.993974          160.36         0.113704        -98.3864
60.37                   0.112925        -121.258         0.993968         160.306         0.993965         160.324         0.113881        -98.4273
60.38                   0.113089        -121.296         0.993955          160.27         0.993956         160.289         0.114057         -98.468
60.39                   0.113253        -121.333         0.993942         160.235         0.993946         160.253         0.114234        -98.5087
60.4                    0.113417         -121.37         0.993929           160.2         0.993937         160.218          0.11441        -98.5492
60.41                   0.113581        -121.407         0.993916         160.165         0.993927         160.183         0.114585        -98.5897
60.42                   0.113745        -121.444         0.993903          160.13         0.993917         160.147         0.114761          -98.63
60.43                   0.113909        -121.481         0.993889         160.095         0.993906         160.112         0.114936        -98.6703
60.44                   0.114073        -121.518         0.993876          160.06         0.993896         160.076         0.115111        -98.7104
60.45                   0.114238        -121.556         0.993862         160.025         0.993885         160.041         0.115286        -98.7505
60.46                   0.114402        -121.593         0.993848          159.99         0.993874         160.006         0.115461        -98.7904
60.47                   0.114566         -121.63         0.993834         159.955         0.993862         159.971         0.115635        -98.8302
60.48                   0.114731        -121.667         0.993819          159.92         0.993851         159.935          0.11581        -98.8699
60.49                   0.114896        -121.705         0.993805         159.885         0.993839           159.9         0.115984        -98.9095
60.5                    0.115061        -121.742          0.99379          159.85         0.993827         159.865         0.116157         -98.949
60.51                   0.115225        -121.779         0.993775         159.816         0.993815          159.83         0.116331        -98.9884
60.52                    0.11539        -121.816          0.99376         159.781         0.993802         159.794         0.116504        -99.0277
60.53                   0.115555        -121.854         0.993745         159.746          0.99379         159.759         0.116677        -99.0669
60.54                   0.115721        -121.891          0.99373         159.711         0.993777         159.724          0.11685        -99.1059
60.55                   0.115886        -121.928         0.993714         159.676         0.993763         159.689         0.117023        -99.1449
60.56                   0.116051        -121.966         0.993698         159.641          0.99375         159.654         0.117195        -99.1837
60.57                   0.116217        -122.003         0.993682         159.607         0.993737         159.619         0.117367        -99.2224
60.58                   0.116382        -122.041         0.993666         159.572         0.993723         159.584         0.117539         -99.261
60.59                   0.116548        -122.078          0.99365         159.537         0.993709         159.548         0.117711        -99.2994
60.6                    0.116713        -122.115         0.993634         159.502         0.993695         159.513         0.117882        -99.3378
60.61                   0.116879        -122.153         0.993617         159.468          0.99368         159.478         0.118053         -99.376
60.62                   0.117045         -122.19           0.9936         159.433         0.993666         159.443         0.118224        -99.4141
60.63                   0.117211        -122.228         0.993584         159.398         0.993651         159.408         0.118395        -99.4521
60.64                   0.117377        -122.265         0.993567         159.363         0.993636         159.373         0.118566          -99.49
60.65                   0.117543        -122.303         0.993549         159.329         0.993621         159.339         0.118736        -99.5277
60.66                   0.117709         -122.34         0.993532         159.294         0.993605         159.304         0.118906        -99.5653
60.67                   0.117876        -122.378         0.993515         159.259          0.99359         159.269         0.119076        -99.6028
60.68                   0.118042        -122.416         0.993497         159.225         0.993574         159.234         0.119246        -99.6402
60.69                   0.118209        -122.453         0.993479          159.19         0.993558         159.199         0.119415        -99.6774
60.7                    0.118375        -122.491         0.993461         159.156         0.993542         159.164         0.119584        -99.7145
60.71                   0.118542        -122.528         0.993443         159.121         0.993525         159.129         0.119753        -99.7515
60.72                   0.118709        -122.566         0.993425         159.087         0.993509         159.094         0.119922        -99.7883
60.73                   0.118876        -122.604         0.993407         159.052         0.993492          159.06          0.12009         -99.825
60.74                   0.119043        -122.641         0.993388         159.017         0.993475         159.025         0.120258        -99.8616
60.75                    0.11921        -122.679          0.99337         158.983         0.993458          158.99         0.120426         -99.898
60.76                   0.119377        -122.717         0.993351         158.948         0.993441         158.955         0.120594        -99.9343
60.77                   0.119544        -122.754         0.993332         158.914         0.993423         158.921         0.120762        -99.9704
60.78                   0.119712        -122.792         0.993313         158.879         0.993406         158.886         0.120929        -100.006
60.79                   0.119879         -122.83         0.993294         158.845         0.993388         158.851         0.121096        -100.042
60.8                    0.120046        -122.868         0.993274         158.811          0.99337         158.816         0.121263        -100.078
60.81                   0.120214        -122.905         0.993255         158.776         0.993351         158.782          0.12143        -100.114
60.82                   0.120382        -122.943         0.993235         158.742         0.993333         158.747         0.121596        -100.149
60.83                    0.12055        -122.981         0.993215         158.707         0.993315         158.712         0.121763        -100.184
60.84                   0.120718        -123.019         0.993196         158.673         0.993296         158.678         0.121929        -100.219
60.85                   0.120886        -123.057         0.993176         158.639         0.993277         158.643         0.122094        -100.254
60.86                   0.121054        -123.094         0.993155         158.604         0.993258         158.609          0.12226        -100.289
60.87                   0.121222        -123.132         0.993135          158.57         0.993239         158.574         0.122425        -100.324
60.88                    0.12139         -123.17         0.993115         158.536         0.993219          158.54         0.122591        -100.358
60.89                   0.121558        -123.208         0.993094         158.501           0.9932         158.505         0.122756        -100.393
60.9                    0.121727        -123.246         0.993073         158.467          0.99318         158.471          0.12292        -100.427
60.91                   0.121896        -123.284         0.993053         158.433          0.99316         158.436         0.123085        -100.461
60.92                   0.122064        -123.322         0.993032         158.398          0.99314         158.402         0.123249        -100.495
60.93                   0.122233         -123.36         0.993011         158.364          0.99312         158.367         0.123414        -100.529
60.94                   0.122402        -123.398         0.992989          158.33           0.9931         158.333         0.123578        -100.562
60.95                   0.122571        -123.436         0.992968         158.296         0.993079         158.298         0.123741        -100.596
60.96                    0.12274        -123.474         0.992947         158.261         0.993059         158.264         0.123905        -100.629
60.97                   0.122909        -123.512         0.992925         158.227         0.993038         158.229         0.124069        -100.662
60.98                   0.123078         -123.55         0.992903         158.193         0.993017         158.195         0.124232        -100.695
60.99                   0.123247        -123.588         0.992881         158.159         0.992996         158.161         0.124395        -100.728
61                      0.123417        -123.626          0.99286         158.125         0.992974         158.126         0.124558         -100.76
61.01                   0.123586        -123.664         0.992838          158.09         0.992953         158.092          0.12472        -100.793
61.02                   0.123756        -123.702         0.992815         158.056         0.992932         158.058         0.124883        -100.825
61.03                   0.123926         -123.74         0.992793         158.022          0.99291         158.023         0.125045        -100.857
61.04                   0.124096        -123.779         0.992771         157.988         0.992888         157.989         0.125208        -100.889
61.05                   0.124266        -123.817         0.992748         157.954         0.992866         157.955          0.12537        -100.921
61.06                   0.124436        -123.855         0.992725          157.92         0.992844         157.921         0.125531        -100.952
61.07                   0.124606        -123.893         0.992703         157.886         0.992822         157.886         0.125693        -100.984
61.08                   0.124776        -123.931          0.99268         157.852         0.992799         157.852         0.125855        -101.015
61.09                   0.124946        -123.969         0.992657         157.818         0.992777         157.818         0.126016        -101.046
61.1                    0.125117        -124.008         0.992634         157.784         0.992754         157.784         0.126178        -101.077
61.11                   0.125287        -124.046         0.992611          157.75         0.992731         157.749         0.126339        -101.107
61.12                   0.125458        -124.084         0.992587         157.716         0.992708         157.715           0.1265        -101.138
61.13                   0.125628        -124.123         0.992564         157.682         0.992685         157.681         0.126661        -101.168
61.14                   0.125799        -124.161          0.99254         157.648         0.992662         157.647         0.126821        -101.198
61.15                    0.12597        -124.199         0.992517         157.614         0.992639         157.613         0.126982        -101.228
61.16                   0.126141        -124.237         0.992493          157.58         0.992615         157.579         0.127143        -101.258
61.17                   0.126312        -124.276         0.992469         157.546         0.992592         157.545         0.127303        -101.287
61.18                   0.126483        -124.314         0.992445         157.512         0.992568         157.511         0.127463        -101.316
61.19                   0.126655        -124.353         0.992421         157.478         0.992544         157.477         0.127624        -101.345
61.2                    0.126826        -124.391         0.992397         157.444          0.99252         157.442         0.127784        -101.374
61.21                   0.126998        -124.429         0.992373          157.41         0.992496         157.408         0.127944        -101.403
61.22                   0.127169        -124.468         0.992348         157.376         0.992472         157.374         0.128104        -101.432
61.23                   0.127341        -124.506         0.992324         157.342         0.992447          157.34         0.128264         -101.46
61.24                   0.127513        -124.545         0.992299         157.309         0.992423         157.306         0.128423        -101.488
61.25                   0.127685        -124.583         0.992274         157.275         0.992398         157.272         0.128583        -101.516
61.26                   0.127857        -124.622          0.99225         157.241         0.992374         157.238         0.128743        -101.544
61.27                   0.128029         -124.66         0.992225         157.207         0.992349         157.204         0.128903        -101.571
61.28                   0.128201        -124.699           0.9922         157.173         0.992324         157.171         0.129062        -101.599
61.29                   0.128373        -124.737         0.992175         157.139         0.992299         157.137         0.129222        -101.626
61.3                    0.128546        -124.776          0.99215         157.106         0.992274         157.103         0.129381        -101.653
