! TOUCHSTONE file generated by CST MICROWAVE STUDIO
! Date and time: Thu Feb 22 11:54:30 2024
! Project name: material_angular.cst
! Parameters = {Y=2}
! Header version: 2018
! Port assignment regex: !\s*Touchstone port\s*([0-9]+)\s*=\s*(CST MWS port|CST DS port)\s*([0-9]+|Zmin|Zmax)\s*\(\"(.*)\"\)(\s*mode\s*([0-9]+))?.*
! Touchstone port assignment:
! Touchstone port 1 = CST MWS port 1 ("")
! Touchstone port 2 = CST MWS port 2 ("")
# GHz S MA R 376.7
60                     0.0886975        -174.827         0.996059         161.658         0.996059         161.658        0.0886975        -41.8568
60.01                   0.088956        -174.774         0.996046         161.631         0.996046         161.631        0.0889209         -41.941
60.02                  0.0892136         -174.72         0.996032         161.605         0.996032         161.605        0.0891447         -42.026
60.03                  0.0894703        -174.665         0.996019         161.578         0.996019         161.578         0.089369        -42.1119
60.04                  0.0897261        -174.609         0.996006         161.551         0.996006         161.551        0.0895936        -42.1988
60.05                  0.0899809        -174.552         0.995992         161.525         0.995992         161.525        0.0898186        -42.2867
60.06                  0.0902346        -174.495         0.995978         161.498         0.995978         161.498         0.090044        -42.3756
60.07                  0.0904872        -174.437         0.995964         161.471         0.995964         161.471        0.0902698        -42.4656
60.08                  0.0907386        -174.377          0.99595         161.444          0.99595         161.444        0.0904958        -42.5567
60.09                  0.0909889        -174.317         0.995936         161.418         0.995936         161.418        0.0907221        -42.6489
60.1                   0.0912378        -174.256         0.995922         161.391         0.995922         161.391        0.0909486        -42.7423
60.11                  0.0914855        -174.195         0.995908         161.364         0.995908         161.364        0.0911753        -42.8368
60.12                  0.0917317        -174.132         0.995893         161.337         0.995893         161.337        0.0914022        -42.9327
60.13                  0.0919765        -174.068         0.995878         161.311         0.995878         161.311        0.0916292        -43.0298
60.14                  0.0922197        -174.003         0.995864         161.284         0.995864         161.284        0.0918562        -43.1282
60.15                  0.0924614        -173.938         0.995849         161.257         0.995849         161.257        0.0920832         -43.228
60.16                  0.0927013        -173.871         0.995834          161.23         0.995834          161.23        0.0923102        -43.3292
60.17                  0.0929394        -173.803         0.995819         161.203         0.995819         161.203         0.092537        -43.4319
60.18                  0.0931757        -173.734         0.995803         161.176         0.995803         161.176        0.0927637        -43.5361
60.19                    0.09341        -173.665         0.995788         161.149         0.995788         161.149          0.09299        -43.6418
60.2                   0.0936423        -173.594         0.995773         161.122         0.995773         161.122         0.093216        -43.7491
60.21                  0.0938724        -173.522         0.995757         161.095         0.995757         161.095        0.0934415         -43.858
60.22                  0.0941003        -173.449         0.995742         161.069         0.995742         161.069        0.0936665        -43.9687
60.23                  0.0943258        -173.375         0.995726         161.042         0.995726         161.042        0.0938908         -44.081
60.24                  0.0945488          -173.3          0.99571         161.015          0.99571         161.015        0.0941144        -44.1951
60.25                  0.0947692        -173.223         0.995694         160.987         0.995694         160.987        0.0943371         -44.311
60.26                  0.0949868        -173.146         0.995678          160.96         0.995678          160.96        0.0945587        -44.4287
60.27                  0.0952017        -173.068         0.995662         160.933         0.995662         160.933        0.0947792        -44.5483
60.28                  0.0954135        -172.988         0.995646         160.906         0.995646         160.906        0.0949984        -44.6699
60.29                  0.0956223        -172.908          0.99563         160.879          0.99563         160.879        0.0952161        -44.7934
60.3                   0.0958278        -172.826         0.995614         160.852         0.995614         160.852        0.0954321         -44.919
60.31                  0.0960299        -172.744         0.995598         160.825         0.995598         160.825        0.0956463        -45.0465
60.32                  0.0962284         -172.66         0.995582         160.798         0.995582         160.798        0.0958586        -45.1761
60.33                  0.0964233        -172.576         0.995566         160.771         0.995566         160.771        0.0960686        -45.3079
60.34                  0.0966143         -172.49         0.995549         160.744         0.995549         160.744        0.0962761        -45.4417
60.35                  0.0968013        -172.404         0.995533         160.716         0.995533         160.716         0.096481        -45.5777
60.36                  0.0969842        -172.316         0.995517         160.689         0.995517         160.689         0.096683        -45.7158
60.37                  0.0971628        -172.228         0.995501         160.662         0.995501         160.662        0.0968818         -45.856
60.38                  0.0973369        -172.139         0.995484         160.635         0.995484         160.635        0.0970772        -45.9984
60.39                  0.0975063        -172.049         0.995468         160.607         0.995468         160.607         0.097269         -46.143
60.4                   0.0976709        -171.959         0.995452          160.58         0.995452          160.58        0.0974567        -46.2897
60.41                  0.0978305        -171.868         0.995435         160.553         0.995435         160.553        0.0976401        -46.4384
60.42                   0.097985        -171.776         0.995419         160.525         0.995419         160.525         0.097819        -46.5893
60.43                  0.0981342        -171.684         0.995403         160.498         0.995403         160.498        0.0979929        -46.7421
60.44                   0.098278        -171.592         0.995386         160.471         0.995386         160.471        0.0981615        -46.8969
60.45                  0.0984161        -171.499          0.99537         160.443          0.99537         160.443        0.0983246        -47.0536
60.46                  0.0985484        -171.406         0.995354         160.416         0.995354         160.416        0.0984818        -47.2122
60.47                  0.0986748        -171.313         0.995338         160.388         0.995338         160.388        0.0986327        -47.3724
60.48                  0.0987951         -171.22         0.995322         160.361         0.995322         160.361        0.0987769        -47.5342
60.49                  0.0989092        -171.127         0.995306         160.334         0.995306         160.334        0.0989141        -47.6974
60.5                    0.099017        -171.035          0.99529         160.306          0.99529         160.306        0.0990441         -47.862
60.51                  0.0991183        -170.942         0.995274         160.279         0.995274         160.279        0.0991663        -48.0276
60.52                  0.0992131        -170.851         0.995258         160.251         0.995258         160.251        0.0992805        -48.1943
60.53                  0.0993012         -170.76         0.995242         160.224         0.995242         160.224        0.0993864        -48.3617
60.54                  0.0993825        -170.669         0.995226         160.196         0.995226         160.196        0.0994837        -48.5296
60.55                   0.099457         -170.58         0.995211         160.169         0.995211         160.169        0.0995719        -48.6978
60.56                  0.0995246        -170.492         0.995195         160.141         0.995195         160.141         0.099651        -48.8661
60.57                  0.0995853        -170.405          0.99518         160.113          0.99518         160.113        0.0997206         -49.034
60.58                  0.0996391         -170.32         0.995165         160.086         0.995165         160.086        0.0997806        -49.2014
60.59                  0.0996859        -170.236          0.99515         160.058          0.99515         160.058        0.0998307         -49.368
60.6                   0.0997258        -170.154         0.995135         160.031         0.995135         160.031        0.0998709        -49.5333
60.61                  0.0997588        -170.074          0.99512         160.003          0.99512         160.003         0.099901        -49.6971
60.62                   0.099785        -169.997         0.995105         159.975         0.995105         159.975        0.0999211         -49.859
60.63                  0.0998044        -169.921         0.995091         159.948         0.995091         159.948         0.099931        -50.0186
60.64                  0.0998172        -169.849         0.995077          159.92         0.995077          159.92        0.0999309        -50.1755
60.65                  0.0998235        -169.779         0.995063         159.892         0.995063         159.892         0.099921        -50.3294
60.66                  0.0998235        -169.712         0.995049         159.864         0.995049         159.864        0.0999014        -50.4799
60.67                  0.0998172        -169.648         0.995035         159.837         0.995035         159.837        0.0998723        -50.6267
60.68                   0.099805        -169.587         0.995022         159.809         0.995022         159.809         0.099834        -50.7692
60.69                   0.099787         -169.53         0.995009         159.781         0.995009         159.781         0.099787        -50.9072
60.7                   0.0997635        -169.477         0.994996         159.753         0.994996         159.753        0.0997317        -51.0403
60.71                  0.0997348        -169.427         0.994983         159.726         0.994983         159.726        0.0996685        -51.1682
60.72                  0.0997012        -169.382         0.994971         159.698         0.994971         159.698        0.0995981        -51.2906
60.73                  0.0996629         -169.34         0.994959          159.67         0.994959          159.67        0.0995209        -51.4071
60.74                  0.0996202        -169.303         0.994947         159.642         0.994947         159.642        0.0994377        -51.5175
60.75                  0.0995737         -169.27         0.994936         159.614         0.994936         159.614        0.0993491        -51.6217
60.76                  0.0995235        -169.242         0.994925         159.586         0.994925         159.586        0.0992558        -51.7193
60.77                  0.0994701        -169.218         0.994914         159.558         0.994914         159.558        0.0991587        -51.8102
60.78                  0.0994139        -169.199         0.994904         159.531         0.994904         159.531        0.0990584        -51.8942
60.79                  0.0993553        -169.184         0.994894         159.503         0.994894         159.503        0.0989558        -51.9714
60.8                   0.0992946        -169.175         0.994884         159.475         0.994884         159.475        0.0988517        -52.0416
60.81                  0.0992324         -169.17         0.994875         159.447         0.994875         159.447        0.0987467        -52.1049
60.82                  0.0991689         -169.17         0.994866         159.419         0.994866         159.419        0.0986418        -52.1612
60.83                  0.0991046        -169.175         0.994857         159.391         0.994857         159.391        0.0985376        -52.2107
60.84                    0.09904        -169.185         0.994849         159.363         0.994849         159.363         0.098435        -52.2534
60.85                  0.0989755        -169.199         0.994842         159.335         0.994842         159.335        0.0983346        -52.2895
60.86                  0.0989114        -169.219         0.994834         159.306         0.994834         159.306         0.098237        -52.3191
60.87                  0.0988482        -169.243         0.994827         159.278         0.994827         159.278         0.098143        -52.3425
60.88                  0.0987862        -169.271         0.994821          159.25         0.994821          159.25        0.0980532        -52.3598
60.89                  0.0987258        -169.305         0.994815         159.222         0.994815         159.222         0.097968        -52.3714
60.9                   0.0986674        -169.342          0.99481         159.194          0.99481         159.194        0.0978879        -52.3775
60.91                  0.0986113        -169.385         0.994805         159.166         0.994805         159.166        0.0978135        -52.3784
60.92                  0.0985578        -169.431           0.9948         159.137           0.9948         159.137        0.0977451        -52.3743
60.93                  0.0985074        -169.481         0.994796         159.109         0.994796         159.109         0.097683        -52.3657
60.94                  0.0984602        -169.536         0.994792         159.081         0.994792         159.081        0.0976276        -52.3529
60.95                  0.0984165        -169.594         0.994789         159.052         0.994789         159.052        0.0975791         -52.336
60.96                  0.0983766        -169.656         0.994786         159.024         0.994786         159.024        0.0975377        -52.3156
60.97                  0.0983408        -169.722         0.994784         158.996         0.994784         158.996        0.0975035        -52.2919
60.98                  0.0983091        -169.791         0.994783         158.967         0.994783         158.967        0.0974767        -52.2652
60.99                  0.0982819        -169.863         0.994781         158.939         0.994781         158.939        0.0974573        -52.2359
61                     0.0982593        -169.938         0.994781          158.91         0.994781          158.91        0.0974453        -52.2042
61.01                  0.0982413        -170.016         0.994781         158.882         0.994781         158.882        0.0974408        -52.1705
61.02                  0.0982283        -170.096         0.994781         158.853         0.994781         158.853        0.0974436         -52.135
61.03                  0.0982202        -170.179         0.994782         158.825         0.994782         158.825        0.0974538         -52.098
61.04                  0.0982172        -170.264         0.994783         158.796         0.994783         158.796        0.0974712        -52.0598
61.05                  0.0982193        -170.351         0.994785         158.767         0.994785         158.767        0.0974957        -52.0206
61.06                  0.0982265        -170.441         0.994788         158.738         0.994788         158.738        0.0975272        -51.9807
61.07                   0.098239        -170.531         0.994791          158.71         0.994791          158.71        0.0975655        -51.9402
61.08                  0.0982567        -170.624         0.994795         158.681         0.994795         158.681        0.0976104        -51.8994
61.09                  0.0982795        -170.718         0.994799         158.652         0.994799         158.652        0.0976619        -51.8585
61.1                   0.0983076        -170.813         0.994804         158.623         0.994804         158.623        0.0977195        -51.8176
61.11                  0.0983409        -170.909         0.994809         158.594         0.994809         158.594        0.0977833        -51.7769
61.12                  0.0983793        -171.006         0.994815         158.565         0.994815         158.565        0.0978529        -51.7366
61.13                  0.0984227        -171.104         0.994822         158.536         0.994822         158.536        0.0979282        -51.6967
61.14                  0.0984712        -171.202         0.994829         158.507         0.994829         158.507         0.098009        -51.6574
61.15                  0.0985246        -171.301         0.994837         158.478         0.994837         158.478         0.098095        -51.6189
61.16                  0.0985829        -171.401         0.994845         158.449         0.994845         158.449         0.098186        -51.5812
61.17                   0.098646          -171.5         0.994855         158.419         0.994855         158.419        0.0982818        -51.5444
61.18                  0.0987137          -171.6         0.994864          158.39         0.994864          158.39        0.0983823        -51.5085
61.19                   0.098786          -171.7         0.994875         158.361         0.994875         158.361        0.0984871        -51.4737
61.2                   0.0988628          -171.8         0.994886         158.331         0.994886         158.331        0.0985962          -51.44
61.21                  0.0989439        -171.899         0.994897         158.302         0.994897         158.302        0.0987092        -51.4075
61.22                  0.0990293        -171.999         0.994909         158.272         0.994909         158.272        0.0988261        -51.3761
61.23                  0.0991189        -172.098         0.994922         158.243         0.994922         158.243        0.0989466         -51.346
61.24                  0.0992124        -172.196         0.994936         158.213         0.994936         158.213        0.0990705        -51.3172
61.25                  0.0993098        -172.294          0.99495         158.183          0.99495         158.183        0.0991978        -51.2896
61.26                   0.099411        -172.392         0.994965         158.153         0.994965         158.153        0.0993281        -51.2634
61.27                  0.0995159        -172.488         0.994981         158.124         0.994981         158.124        0.0994613        -51.2385
61.28                  0.0996242        -172.585         0.994997         158.094         0.994997         158.094        0.0995974        -51.2149
61.29                   0.099736         -172.68         0.995014         158.064         0.995014         158.064         0.099736        -51.1926
61.3                   0.0998511        -172.775         0.995032         158.034         0.995032         158.034        0.0998772        -51.1717
