! TOUCHSTONE file generated by CST MICROWAVE STUDIO
! Date and time: Sat Feb 17 15:53:08 2024
! Project name: metal_rotado.cst
! Parameters = {PX=0.75; angX=2; angY=2}
! Header version: 2018
! Port assignment regex: !\s*Touchstone port\s*([0-9]+)\s*=\s*(CST MWS port|CST DS port)\s*([0-9]+|Zmin|Zmax)\s*\(\"(.*)\"\)(\s*mode\s*([0-9]+))?.*
! Touchstone port assignment:
! Touchstone port 1 = CST MWS port 1 ("")
! Touchstone port 2 = CST MWS port 2 ("")
# GHz S MA R 376.7
60                       1.00002        -170.507      1.30302e-65         179.999      1.30302e-65         179.999         0.999967         169.308
60.01                   0.999915        -170.538      1.30302e-65         179.999      1.30302e-65         179.999         0.999924         169.244
60.02                    0.99987        -170.576      1.30302e-65         179.998      1.30302e-65         179.998         0.999924         169.183
60.03                    0.99986        -170.623      1.20278e-65         179.998      1.20278e-65         179.998         0.999938         169.124
60.04                   0.999868        -170.683      1.20278e-65         179.998      1.20278e-65         179.998         0.999957         169.066
60.05                   0.999885        -170.759                0               0                0               0         0.999978         169.006
60.06                   0.999905        -170.859      1.20278e-65         179.998      1.20278e-65         179.998                1         168.944
60.07                   0.999925        -170.998      1.20279e-65         179.998      1.20279e-65         179.998                1         168.881
60.08                   0.999944        -171.202      1.20279e-65         179.997      1.20279e-65         179.997                1         168.814
60.09                   0.999961        -171.544      1.10255e-65         179.997      1.10255e-65         179.997                1         168.744
60.1                    0.999982        -172.249      1.10256e-65         179.996      1.10256e-65         179.996                1         168.666
60.11                    1.00004        -174.683      1.10256e-65         179.993      1.10256e-65         179.993                1         168.613
60.12                    1.00066        -153.405                0               0                0               0                1          168.58
60.13                    1.00001        -167.492      1.00231e-65        -179.999      1.00231e-65        -179.999                1         168.483
60.14                   0.999999        -168.817      1.00231e-65             180      1.00231e-65             180         0.999996         168.393
60.15                          1        -169.327      1.00231e-65         179.999      1.00231e-65         179.999                1         168.303
60.16                          1        -169.603      1.00231e-65         179.998      1.00231e-65         179.998                1          168.21
60.17                          1        -169.781      1.00231e-65         179.998      1.00231e-65         179.998                1         168.112
60.18                          1        -169.909      1.00231e-65         179.998      1.00231e-65         179.998                1          168.01
60.19                          1        -170.006      1.00231e-65         179.998      1.00231e-65         179.998                1         167.902
60.2                           1        -170.086      1.00231e-65         179.997      1.00231e-65         179.997                1         167.787
60.21                          1        -170.153      9.02082e-66         179.997      9.02082e-66         179.997                1         167.666
60.22                          1        -170.212      9.02082e-66         179.997      9.02082e-66         179.997                1         167.537
60.23                   0.999999        -170.264      9.02081e-66         179.997      9.02081e-66         179.997                1         167.399
60.24                   0.999997        -170.312      9.02081e-66         179.996      9.02081e-66         179.996                1         167.252
60.25                   0.999995        -170.357       9.0208e-66         179.996       9.0208e-66         179.996                1         167.095
60.26                   0.999994        -170.399       9.0208e-66         179.996       9.0208e-66         179.996                1         166.926
60.27                   0.999992        -170.439      9.02079e-66         179.996      9.02079e-66         179.996                1         166.744
60.28                    0.99999        -170.478      9.02078e-66         179.995      9.02078e-66         179.995                1         166.547
60.29                   0.999989        -170.516      9.02078e-66         179.995      9.02078e-66         179.995                1         166.334
60.3                    0.999987        -170.553      9.02077e-66         179.995      9.02077e-66         179.995                1         166.102
60.31                   0.999986        -170.589      9.02076e-66         179.995      9.02076e-66         179.995                1         165.849
60.32                   0.999986        -170.625      9.02075e-66         179.994      9.02075e-66         179.994                1         165.572
60.33                   0.999985        -170.661      9.02073e-66         179.994      9.02073e-66         179.994                1         165.266
60.34                   0.999985        -170.697      9.02072e-66         179.993      9.02072e-66         179.993                1         164.928
60.35                   0.999985        -170.733       9.0207e-66         179.993       9.0207e-66         179.993                1         164.551
60.36                   0.999986        -170.769      9.02068e-66         179.992      9.02068e-66         179.992         0.999996         164.129
60.37                   0.999987        -170.806      9.02066e-66         179.992      9.02066e-66         179.992          0.99999         163.653
60.38                   0.999988        -170.843      9.02063e-66         179.991      9.02063e-66         179.991         0.999982         163.113
60.39                    0.99999         -170.88       9.0206e-66          179.99       9.0206e-66          179.99         0.999973         162.492
60.4                    0.999992        -170.918      8.01827e-66          179.99      8.01827e-66          179.99         0.999962         161.774
60.41                   0.999995        -170.956      8.01823e-66         179.989      8.01823e-66         179.989          0.99995         160.932
60.42                   0.999998        -170.995      8.01818e-66         179.987      8.01818e-66         179.987         0.999936         159.931
60.43                          1        -171.035      8.01811e-66         179.986      8.01811e-66         179.986          0.99992         158.723
60.44                    1.00001        -171.076      8.01802e-66         179.984      8.01802e-66         179.984           0.9999         157.234
60.45                    1.00001        -171.118      8.01789e-66         179.982      8.01789e-66         179.982         0.999875         155.356
60.46                    1.00001         -171.16      8.01772e-66          179.98      8.01772e-66          179.98         0.999844         152.915
60.47                    1.00002        -171.204      8.01746e-66         179.976      8.01746e-66         179.976         0.999803         149.613
60.48                    1.00002        -171.249      8.01704e-66         179.972      8.01704e-66         179.972         0.999748          144.91
60.49                    1.00003        -171.295       8.0163e-66         179.965       8.0163e-66         179.965         0.999672         137.705
60.5                     1.00003        -171.343      8.01479e-66         179.955      8.01479e-66         179.955         0.999562         125.426
60.51                    1.00004        -171.391      8.01111e-66         179.944      8.01111e-66         179.944         0.999438         100.847
60.52                    1.00005        -171.442       8.0023e-66         179.965       8.0023e-66         179.965         0.999701         41.8323
60.53                    1.00005        -171.494      8.00448e-66        -179.932      8.00448e-66        -179.932                1        -59.0193
60.54                    1.00006        -171.548      8.01376e-66        -179.931      8.01376e-66        -179.931                1         -117.97
60.55                    1.00006        -171.603      8.01682e-66        -179.949      8.01682e-66        -179.949                1        -142.525
60.56                    1.00006        -171.661      8.01787e-66        -179.962      8.01787e-66        -179.962                1        -154.795
60.57                    1.00006         -171.72      8.01831e-66        -179.969      8.01831e-66        -179.969                1        -161.996
60.58                    1.00006        -171.782       7.0162e-66        -179.975       7.0162e-66        -179.975                1        -166.697
60.59                    1.00006        -171.846       7.0163e-66        -179.979       7.0163e-66        -179.979                1        -169.997
60.6                     1.00005        -171.913      7.01635e-66        -179.982      7.01635e-66        -179.982                1        -172.438
60.61                    1.00004        -171.982      7.01639e-66        -179.984      7.01639e-66        -179.984                1        -174.315
60.62                    1.00002        -172.054      7.01641e-66        -179.986      7.01641e-66        -179.986                1        -175.804
60.63                          1        -172.129      7.01642e-66        -179.987      7.01642e-66        -179.987                1        -177.012
60.64                   0.999973        -172.206      7.01643e-66        -179.989      7.01643e-66        -179.989                1        -178.012
60.65                   0.999939        -172.288      7.01643e-66         -179.99      7.01643e-66         -179.99                1        -178.854
60.66                   0.999898        -172.372      7.01643e-66        -179.991      7.01643e-66        -179.991                1        -179.573
60.67                    0.99985         -172.46      7.01644e-66        -179.991      7.01644e-66        -179.991                1         179.807
60.68                   0.999796        -172.552      7.01644e-66        -179.992      7.01644e-66        -179.992                1         179.266
60.69                   0.999737        -172.647      7.01644e-66        -179.993      7.01644e-66        -179.993                1          178.79
60.7                    0.999675        -172.747      7.01644e-66        -179.993      7.01644e-66        -179.993                1         178.368
60.71                   0.999611        -172.852      7.01644e-66        -179.994      7.01644e-66        -179.994                1         177.991
60.72                   0.999546        -172.961      7.01644e-66        -179.995      7.01644e-66        -179.995                1         177.653
60.73                   0.999484        -173.076      7.01644e-66        -179.995      7.01644e-66        -179.995                1         177.347
60.74                   0.999426        -173.197      7.01644e-66        -179.995      7.01644e-66        -179.995                1          177.07
60.75                   0.999372        -173.324      7.01644e-66        -179.996      7.01644e-66        -179.996                1         176.816
60.76                   0.999324        -173.459      7.01644e-66        -179.996      7.01644e-66        -179.996                1         176.584
60.77                   0.999282        -173.603      7.01644e-66        -179.997      7.01644e-66        -179.997                1         176.371
60.78                   0.999246        -173.755      7.01644e-66        -179.997      7.01644e-66        -179.997                1         176.175
60.79                   0.999217        -173.918      7.01644e-66        -179.998      7.01644e-66        -179.998                1         175.993
60.8                    0.999193        -174.092      7.01644e-66        -179.998      7.01644e-66        -179.998                1         175.824
60.81                   0.999174        -174.278      7.01644e-66        -179.998      7.01644e-66        -179.998                1         175.666
60.82                    0.99916        -174.479      7.01644e-66        -179.999      7.01644e-66        -179.999                1         175.519
60.83                   0.999149        -174.695      7.01644e-66        -179.999      7.01644e-66        -179.999                1         175.382
60.84                   0.999142         -174.93      7.01644e-66            -180      7.01644e-66            -180                1         175.253
60.85                   0.999137        -175.184       6.0141e-66             180       6.0141e-66             180                1         175.132
60.86                   0.999134         -175.46       6.0141e-66         179.999       6.0141e-66         179.999                1         175.018
60.87                   0.999133        -175.762       6.0141e-66         179.999       6.0141e-66         179.999                1         174.911
60.88                   0.999134        -176.094       6.0141e-66         179.998       6.0141e-66         179.998                1         174.809
60.89                   0.999135        -176.459       6.0141e-66         179.998       6.0141e-66         179.998                1         174.713
60.9                    0.999138        -176.864       6.0141e-66         179.997       6.0141e-66         179.997                1         174.622
60.91                   0.999141        -177.315      6.01411e-66         179.997      6.01411e-66         179.997                1         174.535
60.92                   0.999144         -177.82      6.01411e-66         179.996      6.01411e-66         179.996                1         174.453
60.93                   0.999148         -178.39      6.01411e-66         179.995      6.01411e-66         179.995                1         174.374
60.94                   0.999153        -179.038      6.01411e-66         179.994      6.01411e-66         179.994                1           174.3
60.95                   0.999157         -179.78      6.01411e-66         179.993      6.01411e-66         179.993                1         174.228
60.96                   0.999162         179.359      6.01411e-66         179.992      6.01411e-66         179.992                1          174.16
60.97                   0.999168         178.352      6.01411e-66         179.991      6.01411e-66         179.991                1         174.095
60.98                   0.999174         177.154       6.0141e-66          179.99       6.0141e-66          179.99                1         174.032
60.99                   0.999183          175.71      6.01409e-66         179.988      6.01409e-66         179.988                1         173.972
61                      0.999194         173.933      6.01407e-66         179.986      6.01407e-66         179.986                1         173.915
61.01                   0.999209         171.694      6.01403e-66         179.983      6.01403e-66         179.983                1         173.859
61.02                   0.999234          168.79      6.01397e-66          179.98      6.01397e-66          179.98                1         173.806
61.03                   0.999274         164.878      6.01386e-66         179.975      6.01386e-66         179.975                1         173.755
61.04                   0.999345         159.339      6.01365e-66         179.969      6.01365e-66         179.969                1         173.706
61.05                   0.999482         150.946                0               0                0               0         0.999999         173.658
61.06                   0.999778         136.949       6.0122e-66         179.946       6.0122e-66         179.946         0.999999         173.612
61.07                    1.00049         110.333      5.00791e-66         179.929      5.00791e-66         179.929                1         173.566
61.08                    1.00192          54.144                0               0               -0             180                1         173.518
61.09                    1.00168        -31.2934      5.00081e-66        -179.972      5.00081e-66        -179.972                1         173.488
61.1                     1.00001        -87.8995      4.00452e-66         -179.94      4.00452e-66         -179.94                1         173.446
61.11                   0.999188        -114.715      4.00666e-66        -179.947      4.00666e-66        -179.947         0.999999         173.407
61.12                   0.998746        -128.798      4.00764e-66        -179.955      4.00764e-66        -179.955         0.999998         173.369
61.13                   0.998398        -137.236      4.00815e-66        -179.962      4.00815e-66        -179.962         0.999998         173.333
61.14                   0.998036        -142.807      3.00633e-66        -179.967      3.00633e-66        -179.967         0.999998         173.298
61.15                   0.997648        -146.756      3.00647e-66        -179.971      3.00647e-66        -179.971         0.999999         173.263
61.16                   0.997444        -149.716      3.00656e-66        -179.974      3.00656e-66        -179.974                1          173.23
61.17                   0.997989        -152.018      3.00663e-66        -179.976      3.00663e-66        -179.976                1         173.198
61.18                   0.999122        -153.813                0               0                0               0                1         173.166
61.19                   0.999858        -155.236      3.00673e-66         -179.98      3.00673e-66         -179.98                1         173.135
61.2                     1.00013        -156.408      3.00676e-66        -179.981      3.00676e-66        -179.981                1         173.106
61.21                    1.00019        -157.398      3.00678e-66        -179.982      3.00678e-66        -179.982                1         173.076
61.22                    1.00018        -158.247       3.0068e-66        -179.983       3.0068e-66        -179.983                1         173.048
61.23                    1.00015        -158.982      3.00682e-66        -179.984      3.00682e-66        -179.984                1          173.02
61.24                    1.00012        -159.624      2.00455e-66        -179.985      2.00455e-66        -179.985                1         172.993
61.25                    1.00009        -160.191      2.00456e-66        -179.985      2.00456e-66        -179.985                1         172.967
61.26                    1.00006        -160.694      2.00457e-66        -179.986      2.00457e-66        -179.986                1         172.942
61.27                    1.00004        -161.143      2.00457e-66        -179.987      2.00457e-66        -179.987                1         172.917
61.28                    1.00002        -161.547      2.00458e-66        -179.987      2.00458e-66        -179.987                1         172.894
61.29                          1        -161.913                0               0                0               0                1         172.873
