! TOUCHSTONE file generated by CST MICROWAVE STUDIO
! Date and time: Sat Feb 17 15:53:17 2024
! Project name: metal_rotado.cst
! Parameters = {PX=1.75; angX=2; angY=2}
! Header version: 2018
! Port assignment regex: !\s*Touchstone port\s*([0-9]+)\s*=\s*(CST MWS port|CST DS port)\s*([0-9]+|Zmin|Zmax)\s*\(\"(.*)\"\)(\s*mode\s*([0-9]+))?.*
! Touchstone port assignment:
! Touchstone port 1 = CST MWS port 1 ("")
! Touchstone port 2 = CST MWS port 2 ("")
# GHz S MA R 376.7
60                       0.99988        -148.154      1.50641e-65         179.971      1.50641e-65         179.971                1         134.364
60.01                          1         -155.74                0               0                0               0                1         132.371
60.02                    1.00001        -157.478      1.40608e-65         179.941      1.40608e-65         179.941         0.997394         130.698
60.03                    1.00001        -158.266      1.40601e-65         179.937      1.40601e-65         179.937         0.995477         129.029
60.04                    1.00002        -158.726      1.40593e-65         179.933      1.40593e-65         179.933         0.994116         127.248
60.05                    1.00002        -159.034      1.40583e-65         179.929      1.40583e-65         179.929         0.993098           125.3
60.06                    1.00001        -159.261      1.40571e-65         179.925      1.40571e-65         179.925         0.992289          123.14
60.07                    1.00001        -159.438      1.40558e-65         179.921      1.40558e-65         179.921         0.991609          120.72
60.08                    1.00001        -159.584      1.40542e-65         179.917      1.40542e-65         179.917         0.991008         117.988
60.09                    1.00001        -159.707      1.40524e-65         179.913      1.40524e-65         179.913         0.990454         114.878
60.1                     1.00001        -159.816      1.40502e-65         179.909      1.40502e-65         179.909         0.989925         111.307
60.11                    1.00001        -159.912      1.40476e-65         179.905      1.40476e-65         179.905         0.989408         107.172
60.12                    1.00001        -160.001      1.40445e-65         179.902      1.40445e-65         179.902         0.988896         102.339
60.13                    1.00001        -160.083      1.30379e-65         179.899      1.30379e-65         179.899         0.988391         96.6354
60.14                    1.00001         -160.16      1.30337e-65         179.898      1.30337e-65         179.898         0.987909         89.8382
60.15                    1.00001        -160.232      1.30287e-65         179.899      1.30287e-65         179.899         0.987491         81.6623
60.16                    1.00001        -160.302      1.30227e-65         179.905      1.30227e-65         179.905         0.987212         71.7533
60.17                          1         -160.37       1.3016e-65         179.918       1.3016e-65         179.918         0.987203          59.698
60.18                          1        -160.435      1.30088e-65         179.942      1.30088e-65         179.942          0.98767         45.0817
60.19                          1        -160.499      1.30024e-65          179.98      1.30024e-65          179.98         0.988861         27.6348
60.2                           1        -160.562      1.29986e-65        -179.968      1.29986e-65        -179.968         0.990954         7.49146
60.21                          1        -160.624      1.29994e-65        -179.908      1.29994e-65        -179.908         0.993835        -14.5428
60.22                          1        -160.685      1.30053e-65        -179.853      1.30053e-65        -179.853         0.996991        -37.0047
60.23                          1        -160.745       1.3015e-65        -179.814       1.3015e-65        -179.814         0.999755        -58.2595
60.24                   0.999999        -160.805      1.30259e-65        -179.795      1.30259e-65        -179.795                1        -77.1346
60.25                   0.999999        -160.865      1.30359e-65        -179.791      1.30359e-65        -179.791                1        -93.1774
60.26                   0.999998        -160.925      1.30441e-65        -179.798      1.30441e-65        -179.798                1         -106.49
60.27                   0.999997        -160.985      1.30505e-65        -179.809      1.30505e-65        -179.809                1        -117.437
60.28                   0.999997        -161.045      1.30553e-65        -179.822      1.30553e-65        -179.822                1        -126.446
60.29                   0.999996        -161.105      1.30588e-65        -179.836      1.30588e-65        -179.836                1        -133.903
60.3                    0.999995        -161.166      1.30615e-65        -179.848      1.30615e-65        -179.848                1         -140.13
60.31                   0.999995        -161.226      1.30635e-65         -179.86      1.30635e-65         -179.86                1        -145.378
60.32                   0.999994        -161.288       1.3065e-65        -179.871       1.3065e-65        -179.871                1        -149.845
60.33                   0.999994        -161.349      1.30661e-65         -179.88      1.30661e-65         -179.88                1        -153.682
60.34                   0.999993        -161.412       1.3067e-65        -179.888       1.3067e-65        -179.888                1        -157.007
60.35                   0.999993        -161.475      1.30677e-65        -179.896      1.30677e-65        -179.896                1        -159.912
60.36                   0.999992        -161.538       1.2063e-65        -179.903       1.2063e-65        -179.903                1        -162.469
60.37                   0.999992        -161.602      1.20633e-65        -179.909      1.20633e-65        -179.909                1        -164.734
60.38                   0.999991        -161.668      1.20636e-65        -179.915      1.20636e-65        -179.915                1        -166.755
60.39                   0.999991        -161.733      1.20639e-65         -179.92      1.20639e-65         -179.92                1        -168.567
60.4                     0.99999          -161.8      1.20641e-65        -179.924      1.20641e-65        -179.924                1          -170.2
60.41                    0.99999        -161.868      1.20642e-65        -179.928      1.20642e-65        -179.928                1         -171.68
60.42                    0.99999        -161.936      1.20643e-65        -179.932      1.20643e-65        -179.932                1        -173.027
60.43                   0.999989        -162.006      1.20644e-65        -179.936      1.20644e-65        -179.936                1        -174.257
60.44                   0.999989        -162.076      1.20645e-65        -179.939      1.20645e-65        -179.939                1        -175.385
60.45                   0.999989        -162.148      1.20645e-65        -179.942      1.20645e-65        -179.942                1        -176.424
60.46                   0.999989        -162.221      1.20646e-65        -179.945      1.20646e-65        -179.945                1        -177.382
60.47                   0.999988        -162.295               -0             180               -0             180         0.999991         -178.27
60.48                   0.999988         -162.37      1.20646e-65         -179.95      1.20646e-65         -179.95         0.999934        -179.095
60.49                   0.999988        -162.447      1.20647e-65        -179.952      1.20647e-65        -179.952         0.999883        -179.863
60.5                    0.999988        -162.525      1.20647e-65        -179.954      1.20647e-65        -179.954         0.999838          179.42
60.51                   0.999988        -162.604      1.20647e-65        -179.956      1.20647e-65        -179.956         0.999797         178.749
60.52                   0.999988        -162.685      1.20647e-65        -179.958      1.20647e-65        -179.958         0.999761          178.12
60.53                   0.999988        -162.767      1.20647e-65         -179.96      1.20647e-65         -179.96         0.999729         177.529
60.54                   0.999988        -162.851      1.20647e-65        -179.962      1.20647e-65        -179.962         0.999701         176.973
60.55                   0.999988        -162.936      1.20647e-65        -179.964      1.20647e-65        -179.964         0.999676         176.448
60.56                   0.999988        -163.023      1.20647e-65        -179.965      1.20647e-65        -179.965         0.999654         175.952
60.57                   0.999988        -163.112      1.20647e-65        -179.967      1.20647e-65        -179.967         0.999635         175.483
60.58                   0.999988        -163.203      1.20647e-65        -179.968      1.20647e-65        -179.968         0.999618         175.039
60.59                   0.999988        -163.296      1.20647e-65         -179.97      1.20647e-65         -179.97         0.999604         174.617
60.6                    0.999988         -163.39      1.20646e-65        -179.971      1.20646e-65        -179.971         0.999592         174.216
60.61                   0.999988        -163.487      1.20646e-65        -179.972      1.20646e-65        -179.972         0.999581         173.834
60.62                   0.999988        -163.585      1.20646e-65        -179.973      1.20646e-65        -179.973         0.999573          173.47
60.63                   0.999989        -163.686      1.20646e-65        -179.975      1.20646e-65        -179.975         0.999566         173.123
60.64                   0.999989        -163.789      1.20646e-65        -179.976      1.20646e-65        -179.976          0.99956         172.792
60.65                   0.999989        -163.895      1.20646e-65        -179.977      1.20646e-65        -179.977         0.999556         172.475
60.66                    0.99999        -164.003      1.20646e-65        -179.978      1.20646e-65        -179.978         0.999553         172.171
60.67                    0.99999        -164.114      1.20646e-65        -179.979      1.20646e-65        -179.979         0.999551          171.88
60.68                    0.99999        -164.227      1.20646e-65         -179.98      1.20646e-65         -179.98          0.99955         171.602
60.69                   0.999991        -164.343      1.20646e-65        -179.981      1.20646e-65        -179.981          0.99955         171.334
60.7                    0.999991        -164.462      1.20646e-65        -179.982      1.20646e-65        -179.982          0.99955         171.077
60.71                   0.999992        -164.584      1.20646e-65        -179.983      1.20646e-65        -179.983         0.999552         170.829
60.72                   0.999992        -164.709      1.20646e-65        -179.984      1.20646e-65        -179.984         0.999554         170.591
60.73                   0.999993        -164.837      1.20646e-65        -179.985      1.20646e-65        -179.985         0.999557         170.361
60.74                   0.999994        -164.969      1.20646e-65        -179.986      1.20646e-65        -179.986          0.99956          170.14
60.75                   0.999994        -165.104      1.20646e-65        -179.987      1.20646e-65        -179.987         0.999564         169.927
60.76                   0.999995        -165.243      1.20646e-65        -179.988      1.20646e-65        -179.988         0.999568         169.721
60.77                   0.999996        -165.386      1.20646e-65        -179.989      1.20646e-65        -179.989         0.999573         169.522
60.78                   0.999997        -165.532      1.20646e-65         -179.99      1.20646e-65         -179.99         0.999578         169.329
60.79                   0.999998        -165.684      1.20646e-65        -179.991      1.20646e-65        -179.991         0.999583         169.143
60.8                    0.999999        -165.839      1.20646e-65        -179.992      1.20646e-65        -179.992         0.999589         168.963
60.81                          1        -165.999      1.10592e-65        -179.993      1.10592e-65        -179.993         0.999595         168.789
60.82                          1        -166.164      1.10592e-65        -179.993      1.10592e-65        -179.993         0.999601         168.619
60.83                          1        -166.334      1.10592e-65        -179.994      1.10592e-65        -179.994         0.999608         168.455
60.84                          1         -166.51      1.10592e-65        -179.995      1.10592e-65        -179.995         0.999614         168.296
60.85                          1        -166.691      1.10592e-65        -179.996      1.10592e-65        -179.996         0.999621         168.142
60.86                    1.00001        -166.878      1.10592e-65        -179.997      1.10592e-65        -179.997         0.999628         167.992
60.87                    1.00001        -167.071      1.10592e-65        -179.998      1.10592e-65        -179.998         0.999635         167.846
60.88                    1.00001        -167.271      1.10592e-65        -179.999      1.10592e-65        -179.999         0.999642         167.704
60.89                    1.00001        -167.477      1.10593e-65            -180      1.10593e-65            -180          0.99965         167.566
60.9                     1.00001        -167.691      1.10593e-65         179.999      1.10593e-65         179.999         0.999657         167.432
60.91                    1.00001        -167.912      1.10593e-65         179.998      1.10593e-65         179.998         0.999664         167.301
60.92                    1.00002        -168.142      1.10593e-65         179.997      1.10593e-65         179.997         0.999672         167.174
60.93                    1.00002         -168.38      1.10593e-65         179.996      1.10593e-65         179.996         0.999679          167.05
60.94                    1.00002        -168.627      1.10593e-65         179.995      1.10593e-65         179.995         0.999686         166.929
60.95                    1.00002        -168.884      1.10593e-65         179.994      1.10593e-65         179.994         0.999694         166.811
60.96                    1.00003         -169.15      1.10593e-65         179.993      1.10593e-65         179.993         0.999701         166.695
60.97                    1.00003        -169.428      1.10594e-65         179.992      1.10594e-65         179.992         0.999708         166.583
60.98                    1.00003        -169.717      1.10594e-65         179.991      1.10594e-65         179.991         0.999716         166.473
60.99                    1.00003        -170.018      1.10594e-65          179.99      1.10594e-65          179.99         0.999723         166.366
61                       1.00004        -170.333      1.10594e-65         179.989      1.10594e-65         179.989          0.99973         166.261
61.01                    1.00004        -170.661      1.10594e-65         179.988      1.10594e-65         179.988         0.999737         166.159
61.02                    1.00004        -171.004      1.10594e-65         179.987      1.10594e-65         179.987         0.999745         166.059
61.03                    1.00005        -171.362      1.10594e-65         179.985      1.10594e-65         179.985         0.999752          165.96
61.04                    1.00005        -171.738      1.10595e-65         179.984      1.10595e-65         179.984         0.999759         165.865
61.05                    1.00006        -172.132      1.10595e-65         179.983      1.10595e-65         179.983         0.999766         165.771
61.06                    1.00006        -172.546      1.10595e-65         179.982      1.10595e-65         179.982         0.999772         165.678
61.07                    1.00007        -172.981      1.10595e-65          179.98      1.10595e-65          179.98         0.999779         165.588
61.08                    1.00007        -173.439      1.10595e-65         179.979      1.10595e-65         179.979         0.999786           165.5
61.09                    1.00008        -173.922      1.10596e-65         179.977      1.10596e-65         179.977         0.999792         165.413
61.1                     1.00009        -174.432      1.10596e-65         179.975      1.10596e-65         179.975         0.999799         165.328
61.11                    1.00009        -174.971      1.10596e-65         179.974      1.10596e-65         179.974         0.999805         165.245
61.12                     1.0001        -175.541      1.10596e-65         179.972      1.10596e-65         179.972         0.999812         165.163
61.13                    1.00011        -176.147      1.10596e-65          179.97      1.10596e-65          179.97         0.999818         165.083
61.14                    1.00012         -176.79      1.10596e-65         179.968      1.10596e-65         179.968         0.999824         165.004
61.15                    1.00013        -177.475                0               0                0               0          0.99983         164.926
61.16                    1.00014        -178.207      1.10596e-65         179.964      1.10596e-65         179.964         0.999836          164.85
61.17                    1.00015        -178.989      1.10596e-65         179.961      1.10596e-65         179.961         0.999842         164.775
61.18                    1.00016        -179.827      1.10596e-65         179.959      1.10596e-65         179.959         0.999847         164.701
61.19                    1.00018         179.272      1.10596e-65         179.956      1.10596e-65         179.956         0.999853         164.629
61.2                     1.00019         178.302      1.10596e-65         179.953      1.10596e-65         179.953         0.999858         164.557
61.21                    1.00021         177.253      1.10596e-65          179.95      1.10596e-65          179.95         0.999864         164.487
61.22                    1.00023         176.116      1.10595e-65         179.947      1.10595e-65         179.947         0.999869         164.418
61.23                    1.00026         174.879      1.10595e-65         179.944      1.10595e-65         179.944         0.999874          164.35
61.24                    1.00028          173.53      1.10594e-65          179.94      1.10594e-65          179.94         0.999879         164.282
61.25                    1.00031         172.051      1.10593e-65         179.935      1.10593e-65         179.935         0.999884         164.216
61.26                    1.00034         170.424      1.10591e-65         179.931      1.10591e-65         179.931         0.999889         164.151
61.27                    1.00038         168.626       1.1059e-65         179.926       1.1059e-65         179.926         0.999894         164.086
61.28                    1.00043         166.629      1.10587e-65          179.92      1.10587e-65          179.92         0.999898         164.022
61.29                    1.00048         164.399      1.10584e-65         179.914      1.10584e-65         179.914         0.999903         163.959
