! TOUCHSTONE file generated by CST MICROWAVE STUDIO
! Date and time: Sat Feb 17 15:53:19 2024
! Project name: metal_rotado.cst
! Parameters = {PX=2; angX=2; angY=2}
! Header version: 2018
! Port assignment regex: !\s*Touchstone port\s*([0-9]+)\s*=\s*(CST MWS port|CST DS port)\s*([0-9]+|Zmin|Zmax)\s*\(\"(.*)\"\)(\s*mode\s*([0-9]+))?.*
! Touchstone port assignment:
! Touchstone port 1 = CST MWS port 1 ("")
! Touchstone port 2 = CST MWS port 2 ("")
# GHz S MA R 376.7
60                      0.999958        -154.928      1.50586e-65         179.908      1.50586e-65         179.908                1         109.956
60.01                   0.999795        -155.365      1.50564e-65         179.903      1.50564e-65         179.903                1         106.915
60.02                   0.999723        -155.704      1.50538e-65           179.9      1.50538e-65           179.9                1         103.489
60.03                   0.999697        -155.978      1.50508e-65         179.896      1.50508e-65         179.896                1         99.6059
60.04                   0.999695        -156.206      1.50473e-65         179.894      1.50473e-65         179.894                1         95.1794
60.05                   0.999706        -156.401      1.50432e-65         179.893      1.50432e-65         179.893                1         90.1019
60.06                   0.999723         -156.57      1.50384e-65         179.893      1.50384e-65         179.893                1         84.2429
60.07                   0.999743        -156.721       1.5033e-65         179.896       1.5033e-65         179.896                1         77.4447
60.08                   0.999765        -156.856      1.50268e-65         179.902      1.50268e-65         179.902                1         69.5223
60.09                   0.999786        -156.979        1.502e-65         179.914        1.502e-65         179.914                1         60.2678
60.1                    0.999807        -157.092      1.50128e-65         179.933      1.50128e-65         179.933                1         49.4687
60.11                   0.999827        -157.198      1.50058e-65         179.961      1.50058e-65         179.961                1         36.9469
60.12                   0.999845        -157.297          1.5e-65             180          1.5e-65             180                1         22.6278
60.13                   0.999863         -157.39      1.49967e-65        -179.952      1.49967e-65        -179.952                1         6.63482
60.14                   0.999879         -157.48      1.49973e-65        -179.899      1.49973e-65        -179.899                1        -10.6287
60.15                   0.999894        -157.565       1.4002e-65        -179.847       1.4002e-65        -179.847                1        -28.4775
60.16                   0.999908        -157.648      1.40102e-65        -179.803      1.40102e-65        -179.803                1        -46.0752
60.17                   0.999921        -157.728      1.40205e-65        -179.774      1.40205e-65        -179.774                1         -62.652
60.18                   0.999933        -157.805      1.40313e-65        -179.758      1.40313e-65        -179.758                1        -77.6826
60.19                   0.999944        -157.881      1.40414e-65        -179.754      1.40414e-65        -179.754                1        -90.9367
60.2                    0.999954        -157.955      1.40501e-65        -179.759      1.40501e-65        -179.759                1         -102.42
60.21                   0.999963        -158.028      1.40573e-65        -179.768      1.40573e-65        -179.768                1        -112.279
60.22                   0.999971          -158.1      1.40631e-65         -179.78      1.40631e-65         -179.78                1        -120.718
60.23                   0.999979        -158.171      1.40676e-65        -179.793      1.40676e-65        -179.793                1        -127.949
60.24                   0.999986        -158.242      1.40712e-65        -179.806      1.40712e-65        -179.806                1         -134.17
60.25                   0.999993        -158.311      1.40741e-65        -179.818      1.40741e-65        -179.818                1        -139.548
60.26                   0.999999        -158.381      1.40763e-65         -179.83      1.40763e-65         -179.83                1        -144.224
60.27                          1         -158.45       1.4078e-65        -179.841       1.4078e-65        -179.841                1        -148.316
60.28                          1        -158.519      1.40794e-65        -179.851      1.40794e-65        -179.851                1        -151.917
60.29                          1        -158.588      1.40805e-65         -179.86      1.40805e-65         -179.86                1        -155.106
60.3                           1        -158.657               -0             180               -0             180                1        -157.946
60.31                          1        -158.726      1.40821e-65        -179.876      1.40821e-65        -179.876                1        -160.488
60.32                          1        -158.795      1.40827e-65        -179.883      1.40827e-65        -179.883                1        -162.774
60.33                          1        -158.865      1.40831e-65        -179.889      1.40831e-65        -179.889                1        -164.841
60.34                          1        -158.935      1.40835e-65        -179.895      1.40835e-65        -179.895                1        -166.717
60.35                          1        -159.005      1.40838e-65          -179.9      1.40838e-65          -179.9                1        -168.427
60.36                          1        -159.076      1.40841e-65        -179.905      1.40841e-65        -179.905                1        -169.991
60.37                          1        -159.148      1.40843e-65         -179.91      1.40843e-65         -179.91                1        -171.427
60.38                          1         -159.22      1.40844e-65        -179.914      1.40844e-65        -179.914                1        -172.751
60.39                          1        -159.292      1.40845e-65        -179.918      1.40845e-65        -179.918                1        -173.973
60.4                           1        -159.366      1.40846e-65        -179.922      1.40846e-65        -179.922                1        -175.106
60.41                          1         -159.44      1.40847e-65        -179.925      1.40847e-65        -179.925                1        -176.158
60.42                          1        -159.515      1.40848e-65        -179.929      1.40848e-65        -179.929                1        -177.139
60.43                          1        -159.591      1.40848e-65        -179.932      1.40848e-65        -179.932                1        -178.054
60.44                          1        -159.667      1.40849e-65        -179.935      1.40849e-65        -179.935                1        -178.911
60.45                          1        -159.745      1.40849e-65        -179.937      1.40849e-65        -179.937                1        -179.715
60.46                          1        -159.824      1.30789e-65         -179.94      1.30789e-65         -179.94                1          179.53
60.47                          1        -159.904      1.30789e-65        -179.942      1.30789e-65        -179.942                1         178.819
60.48                          1        -159.985      1.30789e-65        -179.945      1.30789e-65        -179.945                1         178.149
60.49                          1        -160.067      1.30789e-65        -179.947      1.30789e-65        -179.947                1         177.515
60.5                           1         -160.15      1.30789e-65        -179.949      1.30789e-65        -179.949                1         176.916
60.51                          1        -160.235      1.30789e-65        -179.951      1.30789e-65        -179.951                1         176.348
60.52                          1         -160.32      1.30789e-65        -179.953      1.30789e-65        -179.953                1         175.808
60.53                          1        -160.408      1.30789e-65        -179.955      1.30789e-65        -179.955                1         175.296
60.54                          1        -160.496      1.30789e-65        -179.957      1.30789e-65        -179.957                1         174.808
60.55                          1        -160.587      1.30789e-65        -179.958      1.30789e-65        -179.958                1         174.344
60.56                          1        -160.678      1.30788e-65         -179.96      1.30788e-65         -179.96                1           173.9
60.57                          1        -160.772      1.30788e-65        -179.962      1.30788e-65        -179.962                1         173.477
60.58                          1        -160.867      1.30788e-65        -179.963      1.30788e-65        -179.963                1         173.072
60.59                          1        -160.963      1.30788e-65        -179.965      1.30788e-65        -179.965                1         172.685
60.6                           1        -161.062      1.30788e-65        -179.966      1.30788e-65        -179.966                1         172.313
60.61                          1        -161.162      1.30788e-65        -179.967      1.30788e-65        -179.967                1         171.957
60.62                          1        -161.265                0               0                0               0                1         171.616
60.63                          1        -161.369      1.30788e-65         -179.97      1.30788e-65         -179.97                1         171.287
60.64                          1        -161.476      1.30788e-65        -179.971      1.30788e-65        -179.971                1         170.972
60.65                          1        -161.584      1.30787e-65        -179.973      1.30787e-65        -179.973         0.999999         170.668
60.66                          1        -161.695      1.30787e-65        -179.974      1.30787e-65        -179.974         0.999999         170.375
60.67                          1        -161.808      1.30787e-65        -179.975      1.30787e-65        -179.975         0.999999         170.093
60.68                          1        -161.924      1.30787e-65        -179.976      1.30787e-65        -179.976         0.999999         169.821
60.69                          1        -162.042      1.30787e-65        -179.977      1.30787e-65        -179.977         0.999999         169.558
60.7                           1        -162.162      1.30787e-65        -179.978      1.30787e-65        -179.978         0.999998         169.304
60.71                          1        -162.285      1.30787e-65         -179.98      1.30787e-65         -179.98         0.999998         169.059
60.72                          1        -162.412      1.30787e-65        -179.981      1.30787e-65        -179.981         0.999998         168.822
60.73                          1        -162.541      1.30787e-65        -179.982      1.30787e-65        -179.982         0.999998         168.592
60.74                          1        -162.672      1.30787e-65        -179.983      1.30787e-65        -179.983         0.999998         168.369
60.75                          1        -162.808      1.30787e-65        -179.984      1.30787e-65        -179.984         0.999998         168.154
60.76                          1        -162.946      1.30787e-65        -179.985      1.30787e-65        -179.985         0.999997         167.945
60.77                          1        -163.088      1.30787e-65        -179.986      1.30787e-65        -179.986         0.999997         167.742
60.78                          1        -163.233      1.30787e-65        -179.987      1.30787e-65        -179.987         0.999997         167.545
60.79                          1        -163.382      1.30787e-65        -179.988      1.30787e-65        -179.988         0.999997         167.354
60.8                           1        -163.535      1.30787e-65        -179.989      1.30787e-65        -179.989         0.999997         167.168
60.81                          1        -163.691      1.30787e-65         -179.99      1.30787e-65         -179.99         0.999997         166.988
60.82                          1        -163.852      1.30787e-65        -179.991      1.30787e-65        -179.991         0.999997         166.812
60.83                          1        -164.017      1.30787e-65        -179.992      1.30787e-65        -179.992         0.999997         166.641
60.84                          1        -164.187      1.30787e-65        -179.993      1.30787e-65        -179.993         0.999997         166.475
60.85                          1        -164.361      1.30787e-65        -179.994      1.30787e-65        -179.994         0.999997         166.313
60.86                          1         -164.54      1.30787e-65        -179.995      1.30787e-65        -179.995         0.999996         166.155
60.87                          1        -164.725      1.30787e-65        -179.996      1.30787e-65        -179.996         0.999996         166.001
60.88                          1        -164.914      1.30787e-65        -179.997      1.30787e-65        -179.997         0.999996         165.851
60.89                          1         -165.11      1.30788e-65        -179.998      1.30788e-65        -179.998         0.999996         165.704
60.9                           1        -165.311      1.30788e-65        -179.999      1.30788e-65        -179.999         0.999996         165.561
60.91                          1        -165.518      1.30788e-65             180      1.30788e-65             180         0.999996         165.421
60.92                          1        -165.732      1.30788e-65         179.999      1.30788e-65         179.999         0.999996         165.285
60.93                          1        -165.953      1.30788e-65         179.998      1.30788e-65         179.998         0.999996         165.152
60.94                          1         -166.18      1.30788e-65         179.997      1.30788e-65         179.997         0.999996         165.021
60.95                          1        -166.416      1.30788e-65         179.995      1.30788e-65         179.995         0.999996         164.894
60.96                          1        -166.658      1.30789e-65         179.994      1.30789e-65         179.994         0.999996         164.769
60.97                          1         -166.91      1.30789e-65         179.993      1.30789e-65         179.993         0.999996         164.647
60.98                          1         -167.17      1.30789e-65         179.992      1.30789e-65         179.992         0.999996         164.527
60.99                          1        -167.439      1.30789e-65         179.991      1.30789e-65         179.991         0.999996          164.41
61                             1        -167.718      1.20729e-65          179.99      1.20729e-65          179.99         0.999996         164.296
61.01                          1        -168.007      1.20729e-65         179.988      1.20729e-65         179.988         0.999996         164.183
61.02                          1        -168.307      1.20729e-65         179.987      1.20729e-65         179.987         0.999996         164.073
61.03                          1        -168.618      1.20729e-65         179.986      1.20729e-65         179.986         0.999996         163.965
61.04                          1        -168.941      1.20729e-65         179.985      1.20729e-65         179.985         0.999996         163.859
61.05                          1        -169.278       1.2073e-65         179.983       1.2073e-65         179.983         0.999996         163.755
61.06                          1        -169.628       1.2073e-65         179.982       1.2073e-65         179.982         0.999996         163.652
61.07                          1        -169.992       1.2073e-65         179.981       1.2073e-65         179.981         0.999996         163.552
61.08                   0.999999        -170.372       1.2073e-65         179.979       1.2073e-65         179.979         0.999996         163.453
61.09                   0.999999        -170.769      1.20731e-65         179.978      1.20731e-65         179.978         0.999996         163.356
61.1                    0.999998        -171.183      1.20731e-65         179.976      1.20731e-65         179.976         0.999996         163.261
61.11                   0.999998        -171.617      1.20731e-65         179.974      1.20731e-65         179.974         0.999996         163.167
61.12                   0.999997         -172.07      1.20731e-65         179.973      1.20731e-65         179.973         0.999996         163.075
61.13                   0.999997        -172.545      1.20732e-65         179.971      1.20732e-65         179.971         0.999996         162.984
61.14                   0.999996        -173.044      1.20732e-65         179.969      1.20732e-65         179.969         0.999996         162.895
61.15                   0.999996        -173.567      1.20732e-65         179.967      1.20732e-65         179.967         0.999996         162.806
61.16                   0.999995        -174.118      1.20732e-65         179.965      1.20732e-65         179.965         0.999996          162.72
61.17                   0.999995        -174.698      1.20733e-65         179.963      1.20733e-65         179.963         0.999996         162.634
61.18                   0.999995         -175.31      1.20733e-65         179.961      1.20733e-65         179.961         0.999996          162.55
61.19                   0.999994        -175.956      1.20733e-65         179.959      1.20733e-65         179.959         0.999996         162.466
61.2                    0.999994         -176.64      1.20733e-65         179.957      1.20733e-65         179.957         0.999996         162.384
61.21                   0.999994        -177.364      1.20733e-65         179.954      1.20733e-65         179.954         0.999996         162.303
61.22                   0.999993        -178.133      1.20733e-65         179.951      1.20733e-65         179.951         0.999996         162.223
61.23                   0.999993        -178.951      1.20733e-65         179.949      1.20733e-65         179.949         0.999996         162.144
61.24                   0.999993        -179.823      1.20733e-65         179.946      1.20733e-65         179.946         0.999997         162.065
61.25                   0.999993         179.245      1.20733e-65         179.943      1.20733e-65         179.943         0.999997         161.988
61.26                   0.999993         178.248      1.20733e-65         179.939      1.20733e-65         179.939         0.999997         161.911
61.27                   0.999993         177.179      1.20732e-65         179.936      1.20732e-65         179.936         0.999997         161.835
61.28                   0.999992         176.028      1.20732e-65         179.932      1.20732e-65         179.932         0.999997          161.76
61.29                   0.999992         174.786      1.20731e-65         179.928      1.20731e-65         179.928         0.999997         161.685
61.3                    0.999992         173.443       1.2073e-65         179.923       1.2073e-65         179.923         0.999997         161.611
