! TOUCHSTONE file generated by CST MICROWAVE STUDIO
! Date and time: Sat Feb 17 19:24:12 2024
! Project name: metal_rotado.cst
! Parameters = {PX=0.5; angX=2; angY=2}
! Header version: 2018
! Port assignment regex: !\s*Touchstone port\s*([0-9]+)\s*=\s*(CST MWS port|CST DS port)\s*([0-9]+|Zmin|Zmax)\s*\(\"(.*)\"\)(\s*mode\s*([0-9]+))?.*
! Touchstone port assignment:
! Touchstone port 1 = CST MWS port 1 ("")
! Touchstone port 2 = CST MWS port 2 ("")
# GHz S MA R 376.7
60                             1        -173.214                0               0                0               0         0.999999         173.705
60.01                          1        -173.219      9.01359e-66            -180      9.01359e-66            -180                1         173.689
60.02                          1        -173.224      9.01359e-66            -180      9.01359e-66            -180                1         173.672
60.03                          1        -173.228      9.01359e-66            -180      9.01359e-66            -180                1         173.655
60.04                          1        -173.231      9.01359e-66            -180      9.01359e-66            -180                1         173.637
60.05                          1        -173.235      9.01359e-66            -180      9.01359e-66            -180                1         173.618
60.06                          1        -173.239      9.01359e-66            -180      9.01359e-66            -180                1         173.599
60.07                          1        -173.243      9.01359e-66            -180      9.01359e-66            -180                1         173.579
60.08                          1        -173.248      9.01359e-66            -180      9.01359e-66            -180                1         173.558
60.09                          1        -173.252      9.01359e-66            -180      9.01359e-66            -180                1         173.537
60.1                           1        -173.257      9.01359e-66            -180      9.01359e-66            -180                1         173.515
60.11                          1        -173.263      9.01359e-66            -180      9.01359e-66            -180                1         173.491
60.12                          1        -173.268      9.01359e-66            -180      9.01359e-66            -180                1         173.467
60.13                          1        -173.274      9.01359e-66            -180      9.01359e-66            -180                1         173.442
60.14                          1         -173.28      9.01358e-66            -180      9.01358e-66            -180                1         173.416
60.15                          1        -173.287      9.01358e-66            -180      9.01358e-66            -180                1         173.389
60.16                          1        -173.294      9.01358e-66            -180      9.01358e-66            -180                1         173.361
60.17                          1        -173.302      9.01358e-66            -180      9.01358e-66            -180                1         173.331
60.18                          1         -173.31      9.01358e-66             180      9.01358e-66             180                1           173.3
60.19                          1        -173.319      9.01358e-66             180      9.01358e-66             180                1         173.267
60.2                           1        -173.328      9.01358e-66             180      9.01358e-66             180                1         173.233
60.21                          1        -173.337      9.01358e-66             180      9.01358e-66             180                1         173.197
60.22                          1        -173.347      9.01358e-66             180      9.01358e-66             180                1          173.16
60.23                          1        -173.357      9.01358e-66             180      9.01358e-66             180                1          173.12
60.24                          1        -173.368      9.01358e-66             180      9.01358e-66             180                1         173.079
60.25                          1        -173.379      9.01358e-66             180      9.01358e-66             180                1         173.035
60.26                          1        -173.391      9.01358e-66             180      9.01358e-66             180                1         172.988
60.27                          1        -173.403      9.01358e-66             180      9.01358e-66             180                1         172.939
60.28                          1        -173.416      9.01358e-66             180      9.01358e-66             180                1         172.887
60.29                          1         -173.43      9.01358e-66             180      9.01358e-66             180                1         172.832
60.3                           1        -173.444      8.01207e-66         179.999      8.01207e-66         179.999                1         172.773
60.31                          1        -173.458      8.01207e-66         179.999      8.01207e-66         179.999                1          172.71
60.32                          1        -173.474      8.01207e-66         179.999      8.01207e-66         179.999                1         172.643
60.33                          1         -173.49      8.01207e-66         179.999      8.01207e-66         179.999                1         172.572
60.34                          1        -173.506      8.01207e-66         179.999      8.01207e-66         179.999                1         172.494
60.35                          1        -173.523      8.01207e-66         179.999      8.01207e-66         179.999                1         172.411
60.36                          1        -173.541      8.01207e-66         179.999      8.01207e-66         179.999                1         172.321
60.37                          1        -173.559      8.01206e-66         179.999      8.01206e-66         179.999                1         172.224
60.38                          1        -173.579      8.01206e-66         179.999      8.01206e-66         179.999                1         172.118
60.39                          1        -173.599      8.01206e-66         179.999      8.01206e-66         179.999                1         172.003
60.4                           1        -173.619      8.01206e-66         179.999      8.01206e-66         179.999                1         171.876
60.41                          1         -173.64      8.01206e-66         179.999      8.01206e-66         179.999                1         171.737
60.42                          1        -173.662      8.01206e-66         179.998      8.01206e-66         179.998                1         171.582
60.43                          1        -173.685      8.01205e-66         179.998      8.01205e-66         179.998                1         171.411
60.44                          1        -173.708      8.01205e-66         179.998      8.01205e-66         179.998                1         171.218
60.45                          1        -173.732      8.01205e-66         179.998      8.01205e-66         179.998                1         171.001
60.46                          1        -173.756      8.01204e-66         179.998      8.01204e-66         179.998                1         170.755
60.47                          1        -173.781      8.01204e-66         179.998      8.01204e-66         179.998                1         170.472
60.48                          1        -173.806      8.01203e-66         179.997      8.01203e-66         179.997                1         170.145
60.49                          1        -173.832      8.01203e-66         179.997      8.01203e-66         179.997                1         169.761
60.5                           1        -173.858      8.01202e-66         179.997      8.01202e-66         179.997                1         169.305
60.51                          1        -173.885      8.01201e-66         179.996      8.01201e-66         179.996                1         168.754
60.52                          1        -173.913      8.01199e-66         179.996      8.01199e-66         179.996                1         168.074
60.53                          1        -173.941      8.01198e-66         179.995      8.01198e-66         179.995                1         167.215
60.54                          1         -173.97      8.01195e-66         179.994      8.01195e-66         179.994                1         166.096
60.55                          1        -174.001      8.01191e-66         179.993      8.01191e-66         179.993                1         164.575
60.56                          1        -174.033      8.01184e-66         179.991      8.01184e-66         179.991                1         162.392
60.57                          1        -174.067      8.01172e-66         179.989      8.01172e-66         179.989                1         158.995
60.58                          1        -174.102      8.01147e-66         179.985      8.01147e-66         179.985                1         152.995
60.59                          1         -174.14      8.01069e-66         179.976      8.01069e-66         179.976                1          139.69
60.6                           1        -174.181                0               0                0               0                1         90.8619
60.61                          1        -174.224      8.00633e-66        -179.952      8.00633e-66        -179.952         0.998386        -92.6687
60.62                          1         -174.27      7.00985e-66        -179.973      7.00985e-66        -179.973         0.999522        -148.844
60.63                          1        -174.319      7.01039e-66        -179.983      7.01039e-66        -179.983         0.999801        -163.243
60.64                          1        -174.372                0             180                0             180         0.999911         -169.57
60.65                          1        -174.428      7.01058e-66        -179.991      7.01058e-66        -179.991         0.999967        -173.105
60.66                          1        -174.489       7.0106e-66        -179.992       7.0106e-66        -179.992         0.999999        -175.359
60.67                          1        -174.553      7.01061e-66        -179.994      7.01061e-66        -179.994                1        -176.921
60.68                          1        -174.623      7.01061e-66        -179.994      7.01061e-66        -179.994                1        -178.066
60.69                          1        -174.698      7.01062e-66        -179.995      7.01062e-66        -179.995                1        -178.942
60.7                           1        -174.779      7.01062e-66        -179.996      7.01062e-66        -179.996                1        -179.634
60.71                          1        -174.866      7.01062e-66        -179.996      7.01062e-66        -179.996                1         179.805
60.72                          1         -174.96      7.01062e-66        -179.997      7.01062e-66        -179.997                1         179.342
60.73                          1        -175.062      7.01062e-66        -179.997      7.01062e-66        -179.997                1         178.953
60.74                          1        -175.173       6.0091e-66        -179.997       6.0091e-66        -179.997                1         178.621
60.75                          1        -175.294       6.0091e-66        -179.998       6.0091e-66        -179.998                1         178.335
60.76                          1        -175.426       6.0091e-66        -179.998       6.0091e-66        -179.998                1         178.085
60.77                          1        -175.571       6.0091e-66        -179.998       6.0091e-66        -179.998                1         177.866
60.78                          1        -175.731       6.0091e-66        -179.999       6.0091e-66        -179.999                1         177.671
60.79                          1        -175.908      6.00911e-66        -179.999      6.00911e-66        -179.999                1         177.497
60.8                           1        -176.105      6.00911e-66        -179.999      6.00911e-66        -179.999                1         177.341
60.81                          1        -176.326      6.00911e-66        -179.999      6.00911e-66        -179.999                1           177.2
60.82                          1        -176.575      6.00911e-66            -180      6.00911e-66            -180                1         177.072
60.83                          1        -176.857      6.00911e-66            -180      6.00911e-66            -180                1         176.955
60.84                          1         -177.18                0               0                0               0                1         176.847
60.85                          1        -177.553      6.00911e-66         179.999      6.00911e-66         179.999                1         176.749
60.86                          1        -177.989      6.00911e-66         179.999      6.00911e-66         179.999                1         176.658
60.87                          1        -178.505      6.00911e-66         179.999      6.00911e-66         179.999                1         176.573
60.88                          1        -179.126      6.00911e-66         179.998      6.00911e-66         179.998                1         176.495
60.89                          1        -179.886      5.00759e-66         179.997      5.00759e-66         179.997                1         176.422
60.9                           1         179.162      5.00759e-66         179.997      5.00759e-66         179.997                1         176.353
60.91                          1         177.934      5.00759e-66         179.996      5.00759e-66         179.996                1         176.289
60.92                          1         176.292      5.00759e-66         179.994      5.00759e-66         179.994                1         176.229
60.93                          1         173.984      3.55799e-78     1.27898e-10      3.55799e-78     1.27898e-10                1         176.173
60.94                   0.999982         170.507      5.00754e-66          179.99      5.00754e-66          179.99                1          176.12
60.95                   0.999854         164.688      5.00746e-66         179.986      5.00746e-66         179.986                1         176.069
60.96                   0.999614         153.066      4.00574e-66         179.977      4.00574e-66         179.977                1         176.022
60.97                   0.999135         120.303      4.00457e-66         179.959      4.00457e-66         179.959                1         175.977
60.98                          1        -16.1042      4.00011e-66        -179.991      4.00011e-66        -179.991                1         175.934
60.99                          1        -117.362      4.00443e-66        -179.964      4.00443e-66        -179.964         0.999997         175.893
61                             1        -141.566      4.00542e-66        -179.976      4.00542e-66        -179.976         0.999994         175.854
61.01                          1        -151.149       4.0057e-66        -179.982       4.0057e-66        -179.982         0.999991         175.818
61.02                          1        -156.212      4.00582e-66        -179.986      4.00582e-66        -179.986         0.999987         175.782
61.03                          1        -159.331      4.00588e-66        -179.988      4.00588e-66        -179.988         0.999985         175.749
61.04                          1        -161.442      4.00592e-66        -179.989      4.00592e-66        -179.989         0.999982         175.716
61.05                          1        -162.965      4.00594e-66        -179.991      4.00594e-66        -179.991         0.999979         175.685
61.06                          1        -164.115      4.00596e-66        -179.991      4.00596e-66        -179.991         0.999976         175.656
61.07                          1        -165.014      4.00597e-66        -179.992      4.00597e-66        -179.992         0.999974         175.627
61.08                          1        -165.736      4.00598e-66        -179.993      4.00598e-66        -179.993         0.999971           175.6
61.09                          1        -166.329      4.00599e-66        -179.993      4.00599e-66        -179.993         0.999969         175.573
61.1                           1        -166.824      4.00599e-66        -179.993      4.00599e-66        -179.993         0.999966         175.548
61.11                          1        -167.243        4.006e-66        -179.994        4.006e-66        -179.994         0.999964         175.524
61.12                          1        -167.604        4.006e-66        -179.994        4.006e-66        -179.994         0.999962           175.5
61.13                          1        -167.916      4.00601e-66        -179.994      4.00601e-66        -179.994          0.99996         175.477
61.14                          1         -168.19      4.00601e-66        -179.995      4.00601e-66        -179.995         0.999958         175.455
61.15                          1        -168.432      4.00601e-66        -179.995      4.00601e-66        -179.995         0.999957         175.434
61.16                          1        -168.647      4.00601e-66        -179.995      4.00601e-66        -179.995         0.999955         175.414
61.17                          1         -168.84      4.00601e-66        -179.995      4.00601e-66        -179.995         0.999954         175.394
61.18                          1        -169.014      4.00602e-66        -179.995      4.00602e-66        -179.995         0.999952         175.375
61.19                          1        -169.171      4.00602e-66        -179.995      4.00602e-66        -179.995         0.999951         175.356
61.2                           1        -169.314      4.00602e-66        -179.995      4.00602e-66        -179.995          0.99995         175.338
61.21                          1        -169.444      4.00602e-66        -179.996      4.00602e-66        -179.996          0.99995          175.32
61.22                          1        -169.564      4.00602e-66        -179.996      4.00602e-66        -179.996         0.999949         175.303
61.23                          1        -169.674      4.00602e-66        -179.996      4.00602e-66        -179.996         0.999948         175.287
61.24                          1        -169.776      4.00602e-66        -179.996      4.00602e-66        -179.996         0.999948         175.271
61.25                          1         -169.87      4.00602e-66        -179.996      4.00602e-66        -179.996         0.999948         175.255
61.26                          1        -169.957      4.00603e-66        -179.996      4.00603e-66        -179.996         0.999947          175.24
61.27                          1        -170.039      4.00603e-66        -179.996      4.00603e-66        -179.996         0.999947         175.225
61.28                          1        -170.115      4.00603e-66        -179.996      4.00603e-66        -179.996         0.999948         175.211
61.29                          1        -170.186      4.00603e-66        -179.996      4.00603e-66        -179.996         0.999948         175.197
61.3                           1        -170.253      4.00603e-66        -179.996      4.00603e-66        -179.996         0.999948         175.183
