! TOUCHSTONE file generated by CST MICROWAVE STUDIO
! Date and time: Fri Mar  8 11:35:21 2024
! Project name: aire_def.cst
! Parameters = {d=9.2}
! Header version: 2018
! Port assignment regex: !\s*Touchstone port\s*([0-9]+)\s*=\s*(CST MWS port|CST DS port)\s*([0-9]+|Zmin|Zmax)\s*\(\"(.*)\"\)(\s*mode\s*([0-9]+))?.*
! Touchstone port assignment:
! Touchstone port 1 = CST MWS port 1 ("")
! Touchstone port 2 = CST MWS port 2 ("")
# GHz S MA R 376.7
60                   0.000402395        -43.8546         0.999678            -115                1        -114.993      0.000339591         11.7671
60.01                0.000396298        -44.3472         0.999679        -115.018                1        -115.012      0.000334205         12.4878
60.02                0.000390222        -44.8544          0.99968        -115.037                1        -115.031      0.000328875         13.2325
60.03                0.000384169        -45.3768         0.999682        -115.056                1         -115.05      0.000323605         14.0022
60.04                0.000378141        -45.9152         0.999683        -115.075                1        -115.069      0.000318397         14.7978
60.05                0.000372139        -46.4703         0.999684        -115.094                1        -115.088      0.000313254         15.6202
60.06                0.000366164        -47.0427         0.999685        -115.113                1        -115.107      0.000308179         16.4705
60.07                0.000360218        -47.6333         0.999686        -115.132                1        -115.125      0.000303177         17.3496
60.08                0.000354302        -48.2429         0.999687        -115.151                1        -115.144      0.000298251         18.2585
60.09                 0.00034842        -48.8723         0.999689         -115.17                1        -115.163      0.000293404         19.1983
60.1                 0.000342573        -49.5224          0.99969        -115.189                1        -115.182      0.000288642           20.17
60.11                0.000336762        -50.1943         0.999691        -115.208                1        -115.201      0.000283967         21.1745
60.12                 0.00033099        -50.8888         0.999692        -115.227                1         -115.22      0.000279386         22.2129
60.13                 0.00032526        -51.6071         0.999693        -115.246                1        -115.239      0.000274901          23.286
60.14                0.000319574        -52.3502         0.999695        -115.265                1        -115.258      0.000270519         24.3949
60.15                0.000313935        -53.1193         0.999696        -115.283                1        -115.276      0.000266245         25.5404
60.16                0.000308346        -53.9156         0.999697        -115.302                1        -115.295      0.000262083         26.7233
60.17                0.000302809        -54.7403         0.999698        -115.321                1        -115.314      0.000258039         27.9444
60.18                0.000297328        -55.5947         0.999699         -115.34                1        -115.333      0.000254119         29.2042
60.19                0.000291907        -56.4802           0.9997        -115.359                1        -115.352      0.000250329         30.5033
60.2                  0.00028655        -57.3982         0.999702        -115.378                1        -115.371      0.000246675         31.8421
60.21                0.000281259        -58.3501         0.999703        -115.397                1         -115.39      0.000243163         33.2209
60.22                 0.00027604        -59.3374         0.999704        -115.416                1        -115.409      0.000239798         34.6396
60.23                0.000270897        -60.3616         0.999705        -115.435                1        -115.428      0.000236589         36.0982
60.24                0.000265834        -61.4244         0.999706        -115.454                1        -115.446       0.00023354         37.5962
60.25                0.000260857        -62.5272         0.999707        -115.473                1        -115.465      0.000230659         39.1332
60.26                0.000255971        -63.6717         0.999708        -115.492                1        -115.484      0.000227952         40.7081
60.27                0.000251182        -64.8596          0.99971        -115.511                1        -115.503      0.000225424           42.32
60.28                0.000246496        -66.0923         0.999711         -115.53                1        -115.522      0.000223083         43.9673
60.29                0.000241918        -67.3715         0.999712        -115.549                1        -115.541      0.000220934         45.6483
60.3                 0.000237456        -68.6986         0.999713        -115.567                1         -115.56      0.000218982         47.3611
60.31                0.000233117        -70.0752         0.999714        -115.586                1        -115.579      0.000217234         49.1031
60.32                0.000228908        -71.5025         0.999715        -115.605                1        -115.597      0.000215693         50.8719
60.33                0.000224836        -72.9817         0.999717        -115.624                1        -115.616      0.000214365         52.6644
60.34                 0.00022091        -74.5138         0.999718        -115.643                1        -115.635      0.000213252         54.4775
60.35                0.000217138        -76.0998         0.999719        -115.662                1        -115.654       0.00021236         56.3076
60.36                0.000213528          -77.74          0.99972        -115.681                1        -115.673       0.00021169         58.1513
60.37                0.000210089        -79.4348         0.999721          -115.7                1        -115.692      0.000211244         60.0045
60.38                 0.00020683        -81.1841         0.999722        -115.719                1        -115.711      0.000211025         61.8634
60.39                 0.00020376        -82.9874         0.999723        -115.738                1         -115.73      0.000211031          63.724
60.4                 0.000200887        -84.8437         0.999725        -115.757                1        -115.749      0.000211264         65.5822
60.41                0.000198222        -86.7517         0.999726        -115.776                1        -115.767      0.000211723          67.434
60.42                0.000195772        -88.7094         0.999727        -115.795                1        -115.786      0.000212405         69.2756
60.43                0.000193547        -90.7143         0.999728        -115.814                1        -115.805      0.000213309          71.103
60.44                0.000191554        -92.7633         0.999729        -115.833                1        -115.824      0.000214433         72.9127
60.45                  0.0001898         -94.853          0.99973        -115.851                1        -115.843      0.000215771         74.7012
60.46                0.000188294         -96.979         0.999731         -115.87                1        -115.862      0.000217321         76.4654
60.47                0.000187041        -99.1366         0.999733        -115.889                1        -115.881      0.000219077         78.2024
60.48                0.000186047        -101.321         0.999734        -115.908                1          -115.9      0.000221035         79.9097
60.49                0.000185315        -103.526         0.999735        -115.927                1        -115.919      0.000223189         81.5848
60.5                 0.000184851        -105.745         0.999736        -115.946                1        -115.938      0.000225533         83.2258
60.51                0.000184655        -107.974         0.999737        -115.965                1        -115.956      0.000228062          84.831
60.52                0.000184729        -110.204         0.999738        -115.984                1        -115.975      0.000230769          86.399
60.53                0.000185073         -112.43         0.999739        -116.003                1        -115.994      0.000233648         87.9288
60.54                0.000185686        -114.646          0.99974        -116.022                1        -116.013      0.000236692         89.4195
60.55                0.000186565        -116.845         0.999742        -116.041                1        -116.032      0.000239896         90.8706
60.56                0.000187707        -119.022         0.999743         -116.06                1        -116.051      0.000243252         92.2817
60.57                0.000189107         -121.17         0.999744        -116.079                1         -116.07      0.000246754         93.6527
60.58                 0.00019076        -123.286         0.999745        -116.098                1        -116.089      0.000250396         94.9838
60.59                0.000192659        -125.363         0.999746        -116.117                1        -116.108      0.000254172         96.2751
60.6                 0.000194798        -127.399         0.999747        -116.135                1        -116.126      0.000258075         97.5271
60.61                0.000197168         -129.39         0.999748        -116.154                1        -116.145      0.000262101         98.7403
60.62                0.000199762        -131.333         0.999749        -116.173                1        -116.164      0.000266242         99.9154
60.63                0.000202572        -133.225         0.999751        -116.192                1        -116.183      0.000270494         101.053
60.64                0.000205588        -135.066         0.999752        -116.211                1        -116.202      0.000274851         102.154
60.65                0.000208801        -136.853         0.999753         -116.23                1        -116.221      0.000279308          103.22
60.66                0.000212204        -138.586         0.999754        -116.249                1         -116.24      0.000283861         104.251
60.67                0.000215787        -140.264         0.999755        -116.268                1        -116.259      0.000288504         105.247
60.68                0.000219541        -141.889         0.999756        -116.287                1        -116.278      0.000293233         106.212
60.69                0.000223458        -143.459         0.999757        -116.306                1        -116.297      0.000298045         107.144
60.7                 0.000227529        -144.975         0.999758        -116.325                1        -116.315      0.000302933         108.046
60.71                0.000231747        -146.439          0.99976        -116.344                1        -116.334      0.000307896         108.918
60.72                0.000236104        -147.852         0.999761        -116.363                1        -116.353      0.000312928         109.761
60.73                0.000240592        -149.215         0.999762        -116.382                1        -116.372      0.000318028         110.576
60.74                0.000245203        -150.528         0.999763        -116.401                1        -116.391       0.00032319         111.364
60.75                0.000249932        -151.794         0.999764         -116.42                1         -116.41      0.000328412         112.127
60.76                0.000254772        -153.015         0.999765        -116.438                1        -116.429      0.000333692         112.865
60.77                0.000259715        -154.191         0.999766        -116.457                1        -116.448      0.000339025         113.579
60.78                0.000264758        -155.324         0.999767        -116.476                1        -116.467       0.00034441         114.269
60.79                0.000269894        -156.416         0.999768        -116.495                1        -116.486      0.000349844         114.938
60.8                 0.000275117        -157.469          0.99977        -116.514                1        -116.504      0.000355324         115.585
60.81                0.000280424        -158.484         0.999771        -116.533                1        -116.523      0.000360848         116.211
60.82                0.000285809        -159.462         0.999772        -116.552                1        -116.542      0.000366414         116.818
60.83                0.000291268        -160.406         0.999773        -116.571                1        -116.561       0.00037202         117.405
60.84                0.000296796        -161.316         0.999774         -116.59                1         -116.58      0.000377663         117.974
60.85                0.000302391        -162.195         0.999775        -116.609                1        -116.599      0.000383343         118.526
60.86                0.000308048        -163.042         0.999776        -116.628                1        -116.618      0.000389056          119.06
60.87                0.000313764        -163.861         0.999777        -116.647                1        -116.637      0.000394802         119.578
60.88                0.000319535        -164.652         0.999778        -116.666                1        -116.656      0.000400579         120.081
60.89                 0.00032536        -165.416         0.999779        -116.685                1        -116.675      0.000406385         120.568
60.9                 0.000331234        -166.154         0.999781        -116.704                1        -116.693      0.000412218         121.041
60.91                0.000337155        -166.868         0.999782        -116.722                1        -116.712      0.000418078         121.499
60.92                 0.00034312        -167.559         0.999783        -116.741                1        -116.731      0.000423964         121.944
60.93                0.000349128        -168.228         0.999784         -116.76                1         -116.75      0.000429873         122.377
60.94                0.000355176        -168.875         0.999785        -116.779                1        -116.769      0.000435804         122.796
60.95                0.000361262        -169.502         0.999786        -116.798                1        -116.788      0.000441757         123.204
60.96                0.000367384        -170.109         0.999787        -116.817                1        -116.807      0.000447731           123.6
60.97                0.000373539        -170.698         0.999788        -116.836                1        -116.826      0.000453723         123.984
60.98                0.000379727        -171.269         0.999789        -116.855                1        -116.845      0.000459735         124.358
60.99                0.000385946        -171.823          0.99979        -116.874                1        -116.864      0.000465763         124.722
61                   0.000392193        -172.361         0.999791        -116.893                1        -116.882      0.000471809         125.075
61.01                0.000398468        -172.883         0.999792        -116.912                1        -116.901      0.000477869         125.419
61.02                0.000404769         -173.39         0.999794        -116.931                1         -116.92      0.000483945         125.753
61.03                0.000411095        -173.882         0.999795         -116.95                1        -116.939      0.000490035         126.078
61.04                0.000417445        -174.361         0.999796        -116.969                1        -116.958      0.000496138         126.395
61.05                0.000423817        -174.827         0.999797        -116.988                1        -116.977      0.000502254         126.703
61.06                 0.00043021         -175.28         0.999798        -117.007                1        -116.996      0.000508381         127.003
61.07                0.000436623        -175.721         0.999799        -117.026                1        -117.015       0.00051452         127.295
61.08                0.000443055        -176.151           0.9998        -117.044                1        -117.034       0.00052067          127.58
61.09                0.000449506        -176.569         0.999801        -117.063                1        -117.053      0.000526829         127.857
61.1                 0.000455973        -176.977         0.999802        -117.082                1        -117.072      0.000532998         128.127
61.11                0.000462457        -177.374         0.999803        -117.101                1         -117.09      0.000539176          128.39
61.12                0.000468956        -177.761         0.999804         -117.12                1        -117.109      0.000545362         128.647
61.13                 0.00047547        -178.139         0.999805        -117.139                1        -117.128      0.000551556         128.897
61.14                0.000481998        -178.508         0.999806        -117.158                1        -117.147      0.000557757         129.141
61.15                0.000488539        -178.868         0.999808        -117.177                1        -117.166      0.000563965         129.379
61.16                0.000495093        -179.219         0.999809        -117.196                1        -117.185      0.000570179         129.611
61.17                0.000501658        -179.562          0.99981        -117.215                1        -117.204      0.000576399         129.837
61.18                0.000508235        -179.898         0.999811        -117.234                1        -117.223      0.000582625         130.058
61.19                0.000514822         179.774         0.999812        -117.253                1        -117.242      0.000588856         130.274
61.2                 0.000521419         179.454         0.999813        -117.272                1        -117.261      0.000595091         130.484
61.21                0.000528026          179.14         0.999814        -117.291                1         -117.28      0.000601331          130.69
61.22                0.000534641         178.833         0.999815         -117.31                1        -117.298      0.000607574          130.89
61.23                0.000541265         178.533         0.999816        -117.329                1        -117.317      0.000613821         131.086
61.24                0.000547897         178.239         0.999817        -117.347                1        -117.336      0.000620071         131.277
61.25                0.000554536         177.951         0.999818        -117.366                1        -117.355      0.000626324         131.464
61.26                0.000561182          177.67         0.999819        -117.385                1        -117.374       0.00063258         131.647
61.27                0.000567834         177.393          0.99982        -117.404                1        -117.393      0.000638837         131.825
61.28                0.000574493         177.122         0.999821        -117.423                1        -117.412      0.000645097         131.999
61.29                0.000581157         176.857         0.999822        -117.442                1        -117.431      0.000651358          132.17
61.3                 0.000587826         176.597         0.999824        -117.461                1         -117.45       0.00065762         132.336
