! TOUCHSTONE file generated by CST MICROWAVE STUDIO
! Date and time: Fri Mar  8 11:35:23 2024
! Project name: aire_def.cst
! Parameters = {d=9.25}
! Header version: 2018
! Port assignment regex: !\s*Touchstone port\s*([0-9]+)\s*=\s*(CST MWS port|CST DS port)\s*([0-9]+|Zmin|Zmax)\s*\(\"(.*)\"\)(\s*mode\s*([0-9]+))?.*
! Touchstone port assignment:
! Touchstone port 1 = CST MWS port 1 ("")
! Touchstone port 2 = CST MWS port 2 ("")
# GHz S MA R 376.7
60                   0.000394996        -42.7626         0.999809        -107.796                1        -107.789       0.00040397         6.34602
60.01                0.000389969        -43.3876         0.999809        -107.814                1        -107.806      0.000397631         6.73398
60.02                0.000384976        -44.0281          0.99981        -107.832                1        -107.824      0.000391311         7.13531
60.03                 0.00038002        -44.6845         0.999811        -107.849                1        -107.841      0.000385011          7.5506
60.04                0.000375101        -45.3575         0.999811        -107.867                1        -107.859      0.000378734         7.98051
60.05                0.000370223        -46.0475         0.999812        -107.885                1        -107.877       0.00037248         8.42573
60.06                0.000365386        -46.7551         0.999813        -107.903                1        -107.894       0.00036625         8.88697
60.07                0.000360593        -47.4808         0.999813         -107.92                1        -107.912      0.000360046         9.36501
60.08                0.000355846        -48.2252         0.999814        -107.938                1         -107.93      0.000353869         9.86064
60.09                0.000351148        -48.9888         0.999814        -107.956                1        -107.947      0.000347722         10.3747
60.1                   0.0003465        -49.7723         0.999815        -107.973                1        -107.965      0.000341604         10.9082
60.11                0.000341905        -50.5762         0.999816        -107.991                1        -107.983       0.00033552         11.4619
60.12                0.000337365        -51.4012         0.999816        -108.009                1            -108      0.000329469          12.037
60.13                0.000332884        -52.2477         0.999817        -108.027                1        -108.018      0.000323455         12.6345
60.14                0.000328464        -53.1165         0.999818        -108.044                1        -108.036      0.000317479         13.2554
60.15                0.000324108        -54.0081         0.999818        -108.062                1        -108.053      0.000311544         13.9011
60.16                0.000319818        -54.9231         0.999819         -108.08                1        -108.071      0.000305652         14.5727
60.17                0.000315598        -55.8621         0.999819        -108.098                1        -108.089      0.000299806         15.2716
60.18                0.000311452        -56.8257          0.99982        -108.115                1        -108.106      0.000294009         15.9991
60.19                0.000307382        -57.8144         0.999821        -108.133                1        -108.124      0.000288264         16.7568
60.2                 0.000303392        -58.8287         0.999821        -108.151                1        -108.142      0.000282573         17.5461
60.21                0.000299485        -59.8692         0.999822        -108.169                1        -108.159      0.000276942         18.3688
60.22                0.000295666        -60.9362         0.999822        -108.186                1        -108.177      0.000271372         19.2264
60.23                0.000291938        -62.0304         0.999823        -108.204                1        -108.195      0.000265869         20.1207
60.24                0.000288305        -63.1519         0.999824        -108.222                1        -108.212      0.000260437         21.0537
60.25                0.000284771        -64.3012         0.999824         -108.24                1         -108.23       0.00025508         22.0271
60.26                 0.00028134        -65.4785         0.999825        -108.257                1        -108.248      0.000249802         23.0431
60.27                0.000278017        -66.6839         0.999826        -108.275                1        -108.265      0.000244611         24.1036
60.28                0.000274805        -67.9177         0.999826        -108.293                1        -108.283       0.00023951         25.2107
60.29                0.000271709        -69.1798         0.999827         -108.31                1        -108.301      0.000234506         26.3665
60.3                 0.000268733        -70.4701         0.999827        -108.328                1        -108.318      0.000229606         27.5733
60.31                0.000265883        -71.7885         0.999828        -108.346                1        -108.336      0.000224816         28.8332
60.32                0.000263161        -73.1345         0.999829        -108.364                1        -108.354      0.000220144         30.1482
60.33                0.000260574        -74.5079         0.999829        -108.381                1        -108.371      0.000215596         31.5205
60.34                0.000258124         -75.908          0.99983        -108.399                1        -108.389      0.000211183          32.952
60.35                0.000255817        -77.3341          0.99983        -108.417                1        -108.407      0.000206911         34.4446
60.36                0.000253657        -78.7854         0.999831        -108.435                1        -108.424       0.00020279         35.9999
60.37                0.000251648        -80.2608         0.999832        -108.452                1        -108.442      0.000198829         37.6195
60.38                0.000249794        -81.7592         0.999832         -108.47                1         -108.46      0.000195038         39.3042
60.39                0.000248098        -83.2793         0.999833        -108.488                1        -108.477      0.000191428         41.0551
60.4                 0.000246565        -84.8196         0.999833        -108.506                1        -108.495      0.000188008         42.8722
60.41                0.000245198        -86.3785         0.999834        -108.523                1        -108.513       0.00018479         44.7553
60.42                   0.000244        -87.9543         0.999834        -108.541                1         -108.53      0.000181784         46.7037
60.43                0.000242974         -89.545         0.999835        -108.559                1        -108.548         0.000179         48.7158
60.44                0.000242122        -91.1487         0.999836        -108.576                1        -108.566      0.000176449         50.7893
60.45                0.000241447        -92.7632         0.999836        -108.594                1        -108.583      0.000174142         52.9212
60.46                 0.00024095        -94.3863         0.999837        -108.612                1        -108.601      0.000172087         55.1075
60.47                0.000240633        -96.0157         0.999837         -108.63                1        -108.619      0.000170295         57.3436
60.48                0.000240497        -97.6491         0.999838        -108.647                1        -108.636      0.000168773         59.6239
60.49                0.000240543        -99.2841         0.999839        -108.665                1        -108.654      0.000167529          61.942
60.5                  0.00024077        -100.918         0.999839        -108.683                1        -108.672      0.000166569         64.2908
60.51                0.000241179        -102.549          0.99984        -108.701                1        -108.689      0.000165898         66.6627
60.52                0.000241769        -104.175          0.99984        -108.718                1        -108.707      0.000165519         69.0495
60.53                0.000242539        -105.793         0.999841        -108.736                1        -108.725      0.000165434         71.4427
60.54                0.000243487          -107.4         0.999841        -108.754                1        -108.742      0.000165643         73.8338
60.55                0.000244613        -108.995         0.999842        -108.771                1         -108.76      0.000166145         76.2142
60.56                0.000245912        -110.577         0.999843        -108.789                1        -108.778      0.000166938         78.5755
60.57                0.000247384        -112.141         0.999843        -108.807                1        -108.795      0.000168017         80.9098
60.58                0.000249025        -113.688         0.999844        -108.825                1        -108.813      0.000169377         83.2097
60.59                0.000250832        -115.216         0.999844        -108.842                1        -108.831       0.00017101         85.4685
60.6                 0.000252802        -116.722         0.999845         -108.86                1        -108.848      0.000172909         87.6802
60.61                0.000254932        -118.205         0.999845        -108.878                1        -108.866      0.000175065         89.8397
60.62                0.000257217        -119.665         0.999846        -108.896                1        -108.884      0.000177468         91.9426
60.63                0.000259653          -121.1         0.999847        -108.913                1        -108.901      0.000180108         93.9854
60.64                0.000262237         -122.51         0.999847        -108.931                1        -108.919      0.000182976         95.9656
60.65                0.000264965        -123.893         0.999848        -108.949                1        -108.937      0.000186059         97.8811
60.66                0.000267832        -125.249         0.999848        -108.967                1        -108.954      0.000189348         99.7309
60.67                0.000270834        -126.577         0.999849        -108.984                1        -108.972      0.000192832         101.514
60.68                0.000273967        -127.878         0.999849        -109.002                1         -108.99        0.0001965         103.232
60.69                0.000277227        -129.151          0.99985         -109.02                1        -109.007      0.000200341         104.883
60.7                 0.000280608        -130.396          0.99985        -109.037                1        -109.025      0.000204346          106.47
60.71                0.000284108        -131.612         0.999851        -109.055                1        -109.043      0.000208506         107.993
60.72                0.000287721          -132.8         0.999852        -109.073                1         -109.06       0.00021281         109.454
60.73                0.000291444        -133.961         0.999852        -109.091                1        -109.078       0.00021725         110.855
60.74                0.000295273        -135.093         0.999853        -109.108                1        -109.096      0.000221818         112.197
60.75                0.000299204        -136.199         0.999853        -109.126                1        -109.113      0.000226505         113.483
60.76                0.000303232        -137.277         0.999854        -109.144                1        -109.131      0.000231305         114.715
60.77                0.000307354        -138.329         0.999854        -109.162                1        -109.149      0.000236209         115.895
60.78                0.000311567        -139.354         0.999855        -109.179                1        -109.166      0.000241213         117.026
60.79                0.000315867        -140.354         0.999855        -109.197                1        -109.184      0.000246308         118.108
60.8                  0.00032025        -141.329         0.999856        -109.215                1        -109.202      0.000251489         119.145
60.81                0.000324713         -142.28         0.999856        -109.232                1        -109.219      0.000256752         120.138
60.82                0.000329253        -143.206         0.999857         -109.25                1        -109.237       0.00026209         121.089
60.83                0.000333867        -144.109         0.999858        -109.268                1        -109.255      0.000267499         122.001
60.84                0.000338552        -144.989         0.999858        -109.286                1        -109.272      0.000272974         122.876
60.85                0.000343304        -145.846         0.999859        -109.303                1         -109.29      0.000278512         123.714
60.86                0.000348122        -146.682         0.999859        -109.321                1        -109.308      0.000284108         124.518
60.87                0.000353002        -147.497          0.99986        -109.339                1        -109.325      0.000289759          125.29
60.88                0.000357943        -148.292          0.99986        -109.357                1        -109.343      0.000295462          126.03
60.89                 0.00036294        -149.067         0.999861        -109.374                1        -109.361      0.000301212         126.742
60.9                 0.000367993        -149.822         0.999861        -109.392                1        -109.378      0.000307008         127.425
60.91                0.000373099        -150.559         0.999862         -109.41                1        -109.396      0.000312846         128.081
60.92                0.000378255        -151.277         0.999862        -109.428                1        -109.414      0.000318724         128.713
60.93                0.000383461        -151.978         0.999863        -109.445                1        -109.431      0.000324639          129.32
60.94                0.000388712        -152.662         0.999863        -109.463                1        -109.449       0.00033059         129.904
60.95                0.000394009         -153.33         0.999864        -109.481                1        -109.467      0.000336573         130.466
60.96                0.000399348        -153.981         0.999864        -109.498                1        -109.484      0.000342588         131.007
60.97                0.000404729        -154.617         0.999865        -109.516                1        -109.502      0.000348632         131.528
60.98                0.000410149        -155.238         0.999865        -109.534                1         -109.52      0.000354703         132.031
60.99                0.000415608        -155.845         0.999866        -109.552                1        -109.537        0.0003608         132.515
61                   0.000421102        -156.437         0.999866        -109.569                1        -109.555      0.000366921         132.982
61.01                0.000426631        -157.016         0.999867        -109.587                1        -109.573      0.000373064         133.433
61.02                0.000432194        -157.581         0.999867        -109.605                1         -109.59      0.000379229         133.868
61.03                0.000437789        -158.134         0.999868        -109.623                1        -109.608      0.000385415         134.288
61.04                0.000443415        -158.675         0.999869         -109.64                1        -109.626      0.000391619         134.694
61.05                 0.00044907        -159.203         0.999869        -109.658                1        -109.643       0.00039784         135.085
61.06                0.000454754         -159.72          0.99987        -109.676                1        -109.661      0.000404079         135.464
61.07                0.000460465        -160.226          0.99987        -109.693                1        -109.679      0.000410332          135.83
61.08                0.000466202        -160.721         0.999871        -109.711                1        -109.697      0.000416601         136.185
61.09                0.000471964        -161.206         0.999871        -109.729                1        -109.714      0.000422883         136.527
61.1                 0.000477751         -161.68         0.999872        -109.747                1        -109.732      0.000429178         136.859
61.11                 0.00048356        -162.145         0.999872        -109.764                1         -109.75      0.000435485          137.18
61.12                0.000489391        -162.599         0.999873        -109.782                1        -109.767      0.000441803         137.491
61.13                0.000495244        -163.045         0.999873          -109.8                1        -109.785      0.000448131         137.792
61.14                0.000501117        -163.482         0.999874        -109.817                1        -109.803      0.000454469         138.084
61.15                0.000507009         -163.91         0.999874        -109.835                1         -109.82      0.000460817         138.367
61.16                 0.00051292         -164.33         0.999875        -109.853                1        -109.838      0.000467172         138.642
61.17                0.000518849        -164.742         0.999875        -109.871                1        -109.856      0.000473536         138.908
61.18                0.000524796        -165.145         0.999875        -109.888                1        -109.873      0.000479906         139.166
61.19                0.000530758        -165.541         0.999876        -109.906                1        -109.891      0.000486283         139.416
61.2                 0.000536737         -165.93         0.999876        -109.924                1        -109.909      0.000492667         139.659
61.21                 0.00054273        -166.312         0.999877        -109.942                1        -109.926      0.000499055         139.895
61.22                0.000548738        -166.686         0.999877        -109.959                1        -109.944      0.000505449         140.125
61.23                 0.00055476        -167.054         0.999878        -109.977                1        -109.962      0.000511848         140.347
61.24                0.000560794        -167.415         0.999878        -109.995                1        -109.979      0.000518251         140.564
61.25                0.000566842         -167.77         0.999879        -110.012                1        -109.997      0.000524657         140.774
61.26                0.000572901        -168.119         0.999879         -110.03                1        -110.015      0.000531067         140.978
61.27                0.000578972        -168.461          0.99988        -110.048                1        -110.032       0.00053748         141.177
61.28                0.000585054        -168.798          0.99988        -110.066                1         -110.05      0.000543895          141.37
61.29                0.000591147        -169.129         0.999881        -110.083                1        -110.068      0.000550312         141.558
61.3                 0.000597249        -169.455         0.999881        -110.101                1        -110.085      0.000556731         141.741
