! TOUCHSTONE file generated by CST MICROWAVE STUDIO
! Date and time: Tue Feb 27 21:04:21 2024
! Project name: material_angular.cst
! Parameters = {exis2=2; exis=5; X=5; Z=5; Y=2}
! Header version: 2018
! Port assignment regex: !\s*Touchstone port\s*([0-9]+)\s*=\s*(CST MWS port|CST DS port)\s*([0-9]+|Zmin|Zmax)\s*\(\"(.*)\"\)(\s*mode\s*([0-9]+))?.*
! Touchstone port assignment:
! Touchstone port 1 = CST MWS port 1 ("")
! Touchstone port 2 = CST MWS port 2 ("")
# GHz S MA R 376.7
60                      0.125881        -88.6208         0.992005          156.14         0.992035         156.139         0.125862        -139.097
60.01                   0.126084        -88.6471         0.991971         156.102         0.992002         156.102         0.126051        -139.135
60.02                   0.126287        -88.6734         0.991937         156.064         0.991969         156.064         0.126241        -139.173
60.03                   0.126489        -88.6998         0.991903         156.026         0.991935         156.026          0.12643        -139.211
60.04                   0.126692        -88.7263         0.991869         155.989         0.991902         155.989          0.12662        -139.249
60.05                   0.126894        -88.7528         0.991835         155.951         0.991869         155.951         0.126809        -139.287
60.06                   0.127097        -88.7794         0.991801         155.913         0.991836         155.913         0.126999        -139.325
60.07                   0.127299         -88.806         0.991767         155.876         0.991803         155.876         0.127189        -139.364
60.08                   0.127502        -88.8327         0.991733         155.838         0.991769         155.838         0.127379        -139.402
60.09                   0.127704        -88.8595           0.9917           155.8         0.991737           155.8         0.127568         -139.44
60.1                    0.127906        -88.8863         0.991666         155.763         0.991704         155.763         0.127758        -139.478
60.11                   0.128108        -88.9132         0.991632         155.725         0.991671         155.725         0.127948        -139.516
60.12                   0.128311        -88.9401         0.991599         155.687         0.991638         155.688         0.128138        -139.555
60.13                   0.128513        -88.9671         0.991566          155.65         0.991605          155.65         0.128328        -139.593
60.14                   0.128715        -88.9942         0.991532         155.612         0.991572         155.612         0.128518        -139.631
60.15                   0.128917        -89.0213         0.991499         155.574          0.99154         155.575         0.128708         -139.67
60.16                   0.129119        -89.0485         0.991466         155.537         0.991507         155.537         0.128899        -139.708
60.17                   0.129321        -89.0758         0.991433         155.499         0.991475           155.5         0.129089        -139.746
60.18                   0.129523        -89.1031           0.9914         155.462         0.991442         155.462         0.129279        -139.785
60.19                   0.129725        -89.1305         0.991367         155.424          0.99141         155.425         0.129469        -139.823
60.2                    0.129927        -89.1579         0.991334         155.387         0.991377         155.387          0.12966        -139.862
60.21                   0.130129        -89.1854         0.991301         155.349         0.991345          155.35          0.12985          -139.9
60.22                   0.130331        -89.2129         0.991268         155.312         0.991313         155.312         0.130041        -139.939
60.23                   0.130532        -89.2405         0.991236         155.274         0.991281         155.275         0.130231        -139.978
60.24                   0.130734        -89.2682         0.991203         155.237         0.991248         155.237         0.130422        -140.016
60.25                   0.130936        -89.2959          0.99117         155.199         0.991216           155.2         0.130613        -140.055
60.26                   0.131137        -89.3237         0.991138         155.162         0.991184         155.163         0.130803        -140.094
60.27                   0.131339        -89.3515         0.991105         155.124         0.991152         155.125         0.130994        -140.132
60.28                    0.13154        -89.3794         0.991073         155.087          0.99112         155.088         0.131185        -140.171
60.29                   0.131742        -89.4073         0.991041         155.049         0.991088          155.05         0.131376         -140.21
60.3                    0.131943        -89.4353         0.991008         155.012         0.991057         155.013         0.131567        -140.249
60.31                   0.132144        -89.4634         0.990976         154.974         0.991025         154.976         0.131758        -140.287
60.32                   0.132346        -89.4915         0.990944         154.937         0.990993         154.938         0.131949        -140.326
60.33                   0.132547        -89.5197         0.990912           154.9         0.990961         154.901          0.13214        -140.365
60.34                   0.132748        -89.5479          0.99088         154.862          0.99093         154.864         0.132331        -140.404
60.35                   0.132949        -89.5762         0.990848         154.825         0.990898         154.826         0.132522        -140.443
60.36                    0.13315        -89.6045         0.990816         154.787         0.990867         154.789         0.132714        -140.482
60.37                   0.133351        -89.6329         0.990784          154.75         0.990835         154.752         0.132905        -140.521
60.38                   0.133552        -89.6614         0.990753         154.713         0.990804         154.714         0.133096         -140.56
60.39                   0.133753        -89.6899         0.990721         154.675         0.990772         154.677         0.133288        -140.599
60.4                    0.133954        -89.7184         0.990689         154.638         0.990741          154.64         0.133479        -140.638
60.41                   0.134155         -89.747         0.990658         154.601          0.99071         154.602         0.133671        -140.677
60.42                   0.134355        -89.7757         0.990626         154.564         0.990679         154.565         0.133862        -140.717
60.43                   0.134556        -89.8044         0.990595         154.526         0.990647         154.528         0.134054        -140.756
60.44                   0.134757        -89.8332         0.990563         154.489         0.990616         154.491         0.134245        -140.795
60.45                   0.134957         -89.862         0.990532         154.452         0.990585         154.453         0.134437        -140.834
60.46                   0.135158        -89.8909         0.990501         154.414         0.990554         154.416         0.134629        -140.874
60.47                   0.135358        -89.9199          0.99047         154.377         0.990523         154.379         0.134821        -140.913
60.48                   0.135558        -89.9489         0.990438          154.34         0.990492         154.342         0.135013        -140.952
60.49                   0.135759        -89.9779         0.990407         154.303         0.990462         154.305         0.135205        -140.992
60.5                    0.135959         -90.007         0.990376         154.266         0.990431         154.268         0.135397        -141.031
60.51                   0.136159        -90.0361         0.990345         154.228           0.9904          154.23         0.135589        -141.071
60.52                   0.136359        -90.0653         0.990315         154.191         0.990369         154.193         0.135781         -141.11
60.53                   0.136559        -90.0946         0.990284         154.154         0.990339         154.156         0.135973         -141.15
60.54                   0.136759        -90.1239         0.990253         154.117         0.990308         154.119         0.136165        -141.189
60.55                   0.136959        -90.1533         0.990222          154.08         0.990277         154.082         0.136357        -141.229
60.56                   0.137159        -90.1827         0.990192         154.043         0.990247         154.045          0.13655        -141.268
60.57                   0.137359        -90.2121         0.990161         154.006         0.990217         154.008         0.136742        -141.308
60.58                   0.137559        -90.2416          0.99013         153.968         0.990186         153.971         0.136934        -141.348
60.59                   0.137758        -90.2712           0.9901         153.931         0.990156         153.934         0.137127        -141.387
60.6                    0.137958        -90.3008          0.99007         153.894         0.990125         153.896         0.137319        -141.427
60.61                   0.138157        -90.3305         0.990039         153.857         0.990095         153.859         0.137512        -141.467
60.62                   0.138357        -90.3602         0.990009          153.82         0.990065         153.822         0.137705        -141.507
60.63                   0.138556          -90.39         0.989979         153.783         0.990035         153.785         0.137897        -141.547
60.64                   0.138756        -90.4198         0.989948         153.746         0.990005         153.748          0.13809        -141.586
60.65                   0.138955        -90.4496         0.989918         153.709         0.989975         153.711         0.138283        -141.626
60.66                   0.139154        -90.4796         0.989888         153.672         0.989945         153.674         0.138476        -141.666
60.67                   0.139353        -90.5095         0.989858         153.635         0.989915         153.637         0.138669        -141.706
60.68                   0.139552        -90.5395         0.989828         153.598         0.989885           153.6         0.138862        -141.746
60.69                   0.139751        -90.5696         0.989798         153.561         0.989855         153.563         0.139055        -141.786
60.7                     0.13995        -90.5997         0.989769         153.524         0.989825         153.527         0.139248        -141.826
60.71                   0.140149        -90.6299         0.989739         153.487         0.989795          153.49         0.139441        -141.866
60.72                   0.140348        -90.6601         0.989709          153.45         0.989765         153.453         0.139634        -141.907
60.73                   0.140546        -90.6904         0.989679         153.413         0.989736         153.416         0.139827        -141.947
60.74                   0.140745        -90.7207          0.98965         153.376         0.989706         153.379          0.14002        -141.987
60.75                   0.140944         -90.751          0.98962         153.339         0.989677         153.342         0.140214        -142.027
60.76                   0.141142        -90.7815         0.989591         153.303         0.989647         153.305         0.140407        -142.068
60.77                    0.14134        -90.8119         0.989561         153.266         0.989617         153.268         0.140601        -142.108
60.78                   0.141539        -90.8424         0.989532         153.229         0.989588         153.231         0.140794        -142.148
60.79                   0.141737         -90.873         0.989502         153.192         0.989559         153.194         0.140988        -142.189
60.8                    0.141935        -90.9036         0.989473         153.155         0.989529         153.158         0.141181        -142.229
60.81                   0.142133        -90.9342         0.989444         153.118           0.9895         153.121         0.141375         -142.27
60.82                   0.142331        -90.9649         0.989415         153.081         0.989471         153.084         0.141569         -142.31
60.83                   0.142529        -90.9957         0.989385         153.045         0.989441         153.047         0.141762        -142.351
60.84                   0.142727        -91.0265         0.989356         153.008         0.989412          153.01         0.141956        -142.391
60.85                   0.142925        -91.0573         0.989327         152.971         0.989383         152.974          0.14215        -142.432
60.86                   0.143122        -91.0882         0.989298         152.934         0.989354         152.937         0.142344        -142.472
60.87                    0.14332        -91.1191         0.989269         152.897         0.989325           152.9         0.142538        -142.513
60.88                   0.143517        -91.1501         0.989241         152.861         0.989296         152.863         0.142732        -142.554
60.89                   0.143715        -91.1811         0.989212         152.824         0.989267         152.827         0.142926        -142.595
60.9                    0.143912        -91.2122         0.989183         152.787         0.989238          152.79          0.14312        -142.635
60.91                   0.144109        -91.2433         0.989154         152.751         0.989209         152.753         0.143315        -142.676
60.92                   0.144307        -91.2745         0.989126         152.714          0.98918         152.716         0.143509        -142.717
60.93                   0.144504        -91.3057         0.989097         152.677         0.989151          152.68         0.143703        -142.758
60.94                   0.144701         -91.337         0.989068          152.64         0.989123         152.643         0.143898        -142.799
60.95                   0.144898        -91.3683          0.98904         152.604         0.989094         152.606         0.144092         -142.84
60.96                   0.145094        -91.3996         0.989011         152.567         0.989065          152.57         0.144287        -142.881
60.97                   0.145291         -91.431         0.988983          152.53         0.989037         152.533         0.144481        -142.922
60.98                   0.145488        -91.4625         0.988955         152.494         0.989008         152.496         0.144676        -142.963
60.99                   0.145684        -91.4939         0.988926         152.457          0.98898          152.46          0.14487        -143.004
61                      0.145881        -91.5255         0.988898         152.421         0.988951         152.423         0.145065        -143.045
61.01                   0.146077        -91.5571          0.98887         152.384         0.988923         152.387          0.14526        -143.087
61.02                   0.146273        -91.5887         0.988842         152.347         0.988894          152.35         0.145455        -143.128
61.03                    0.14647        -91.6204         0.988814         152.311         0.988866         152.313          0.14565        -143.169
61.04                   0.146666        -91.6521         0.988786         152.274         0.988838         152.277         0.145845        -143.211
61.05                   0.146862        -91.6838         0.988758         152.238         0.988809          152.24          0.14604        -143.252
61.06                   0.147058        -91.7156          0.98873         152.201         0.988781         152.204         0.146235        -143.293
61.07                   0.147254        -91.7475         0.988702         152.165         0.988753         152.167          0.14643        -143.335
61.08                   0.147449        -91.7794         0.988674         152.128         0.988725         152.131         0.146625        -143.376
61.09                   0.147645        -91.8113         0.988646         152.092         0.988697         152.094          0.14682        -143.418
61.1                     0.14784        -91.8433         0.988618         152.055         0.988669         152.058         0.147016        -143.459
61.11                   0.148036        -91.8753          0.98859         152.019          0.98864         152.021         0.147211        -143.501
61.12                   0.148231        -91.9074         0.988563         151.982         0.988612         151.985         0.147407        -143.543
61.13                   0.148426        -91.9395         0.988535         151.946         0.988585         151.948         0.147602        -143.585
61.14                   0.148622        -91.9716         0.988507         151.909         0.988557         151.912         0.147798        -143.626
61.15                   0.148817        -92.0038          0.98848         151.873         0.988529         151.875         0.147993        -143.668
61.16                   0.149012        -92.0361         0.988452         151.836         0.988501         151.839         0.148189         -143.71
61.17                   0.149206        -92.0683         0.988425           151.8         0.988473         151.802         0.148385        -143.752
61.18                   0.149401        -92.1007         0.988398         151.763         0.988445         151.766         0.148581        -143.794
61.19                   0.149596         -92.133          0.98837         151.727         0.988418          151.73         0.148777        -143.836
61.2                     0.14979        -92.1655         0.988343         151.691          0.98839         151.693         0.148973        -143.878
61.21                   0.149985        -92.1979         0.988316         151.654         0.988362         151.657         0.149169         -143.92
61.22                   0.150179        -92.2304         0.988288         151.618         0.988335          151.62         0.149365        -143.962
61.23                   0.150373         -92.263         0.988261         151.582         0.988307         151.584         0.149561        -144.004
61.24                   0.150567        -92.2955         0.988234         151.545          0.98828         151.548         0.149757        -144.047
61.25                   0.150761        -92.3282         0.988207         151.509         0.988252         151.511         0.149953        -144.089
61.26                   0.150955        -92.3608          0.98818         151.473         0.988225         151.475          0.15015        -144.131
61.27                   0.151149        -92.3935         0.988153         151.436         0.988197         151.439         0.150346        -144.173
61.28                   0.151343        -92.4263         0.988126           151.4          0.98817         151.402         0.150543        -144.216
61.29                   0.151536        -92.4591         0.988099         151.364         0.988142         151.366         0.150739        -144.258
