! TOUCHSTONE file generated by CST MICROWAVE STUDIO
! Date and time: Mon Feb 26 23:25:14 2024
! Project name: material_desal.cst
! Header version: 2018
! Port assignment regex: !\s*Touchstone port\s*([0-9]+)\s*=\s*(CST MWS port|CST DS port)\s*([0-9]+|Zmin|Zmax)\s*\(\"(.*)\"\)(\s*mode\s*([0-9]+))?.*
! Touchstone port assignment:
! Touchstone port 1 = CST MWS port 1 ("")
! Touchstone port 2 = CST MWS port 2 ("")
# GHz S MA R 376.7
60                     0.0714517        -111.209         0.997475         158.911         0.997424          158.91        0.0714477        -110.988
60.01                  0.0750673        -111.428         0.997206         158.677         0.997162         158.676        0.0750642        -111.234
60.02                  0.0784838        -111.638          0.99694         158.454         0.996902         158.453        0.0784814        -111.467
60.03                  0.0817184        -111.839         0.996677         158.241         0.996644          158.24        0.0817166        -111.688
60.04                  0.0847863        -112.033         0.996418         158.038          0.99639         158.038         0.084785        -111.898
60.05                  0.0877011         -112.22         0.996164         157.844         0.996139         157.844        0.0877002        -112.098
60.06                  0.0904749          -112.4         0.995913         157.658         0.995893         157.658        0.0904742        -112.289
60.07                  0.0931187        -112.573         0.995667          157.48          0.99565         157.479        0.0931182        -112.472
60.08                  0.0956422         -112.74         0.995426         157.308         0.995412         157.308        0.0956418        -112.647
60.09                  0.0980542        -112.901          0.99519         157.143         0.995178         157.143         0.098054        -112.815
60.1                    0.100363        -113.057         0.994958         156.984         0.994949         156.984         0.100363        -112.977
60.11                   0.102575        -113.208         0.994731          156.83         0.994724          156.83         0.102575        -113.133
60.12                   0.104698        -113.354         0.994508         156.682         0.994503         156.682         0.104698        -113.284
60.13                   0.106738        -113.495          0.99429         156.538         0.994287         156.538         0.106738        -113.429
60.14                   0.108699        -113.633         0.994077         156.399         0.994074         156.399         0.108699         -113.57
60.15                   0.110587        -113.766         0.993867         156.264         0.993866         156.264         0.110587        -113.706
60.16                   0.112407        -113.896         0.993662         156.133         0.993662         156.133         0.112407        -113.839
60.17                   0.114162        -114.022         0.993461         156.005         0.993462         156.005         0.114162        -113.967
60.18                   0.115858        -114.145         0.993264         155.881         0.993266         155.881         0.115858        -114.092
60.19                   0.117496        -114.265         0.993071         155.761         0.993074         155.761         0.117496        -114.214
60.2                    0.119081        -114.382         0.992882         155.643         0.992885         155.643         0.119081        -114.332
60.21                   0.120615        -114.496         0.992696         155.528           0.9927         155.528         0.120615        -114.447
60.22                   0.122102        -114.607         0.992514         155.416         0.992518         155.416         0.122102         -114.56
60.23                   0.123544        -114.716         0.992335         155.307         0.992339         155.307         0.123544         -114.67
60.24                   0.124943        -114.822          0.99216           155.2         0.992164           155.2         0.124943        -114.778
60.25                   0.126302        -114.926         0.991987         155.095         0.991992         155.095         0.126302        -114.883
60.26                   0.127622        -115.029         0.991818         154.993         0.991823         154.993         0.127622        -114.986
60.27                   0.128907        -115.129         0.991652         154.893         0.991657         154.893         0.128907        -115.086
60.28                   0.130157        -115.227         0.991488         154.794         0.991494         154.794         0.130157        -115.185
60.29                   0.131374        -115.323         0.991328         154.698         0.991333         154.698         0.131374        -115.282
60.3                     0.13256        -115.417          0.99117         154.603         0.991175         154.603          0.13256        -115.377
60.31                   0.133716         -115.51         0.991014          154.51          0.99102          154.51         0.133716         -115.47
60.32                   0.134844        -115.602         0.990861         154.418         0.990867         154.418         0.134844        -115.562
60.33                   0.135945        -115.691         0.990711         154.328         0.990716         154.328         0.135945        -115.652
60.34                   0.137021         -115.78         0.990563          154.24         0.990568          154.24         0.137021        -115.741
60.35                   0.138072        -115.867         0.990417         154.153         0.990422         154.153         0.138072        -115.828
60.36                   0.139099        -115.952         0.990273         154.067         0.990278         154.067         0.139099        -115.914
60.37                   0.140104        -116.036         0.990132         153.983         0.990137         153.983         0.140104        -115.998
60.38                   0.141088         -116.12         0.989992         153.899         0.989997         153.899         0.141088        -116.082
60.39                   0.142051        -116.202         0.989855         153.817         0.989859         153.817         0.142051        -116.164
60.4                    0.142994        -116.282         0.989719         153.736         0.989723         153.736         0.142994        -116.245
60.41                   0.143918        -116.362         0.989585         153.657         0.989589         153.657         0.143918        -116.325
60.42                   0.144824        -116.441         0.989453         153.578         0.989457         153.578         0.144824        -116.404
60.43                   0.145713        -116.519         0.989323           153.5         0.989326           153.5         0.145713        -116.482
60.44                   0.146585        -116.596         0.989194         153.423         0.989198         153.423         0.146585        -116.559
60.45                   0.147441        -116.671         0.989067         153.347          0.98907         153.347         0.147442        -116.635
60.46                   0.148282        -116.747         0.988942         153.272         0.988945         153.272         0.148282         -116.71
60.47                   0.149108        -116.821         0.988818         153.198         0.988821         153.198         0.149108        -116.784
60.48                    0.14992        -116.894         0.988695         153.124         0.988698         153.124          0.14992        -116.858
60.49                   0.150717        -116.967         0.988574         153.051         0.988577         153.051         0.150717        -116.931
60.5                    0.151502        -117.039         0.988454         152.979         0.988457         152.979         0.151502        -117.003
60.51                   0.152274         -117.11         0.988336         152.908         0.988338         152.908         0.152274        -117.074
60.52                   0.153033        -117.181         0.988219         152.838         0.988221         152.838         0.153033        -117.145
60.53                   0.153781         -117.25         0.988103         152.768         0.988105         152.768         0.153781        -117.214
60.54                   0.154517         -117.32         0.987988         152.698          0.98799         152.698         0.154517        -117.284
60.55                   0.155243        -117.388         0.987875          152.63         0.987876          152.63         0.155243        -117.352
60.56                   0.155957        -117.456         0.987763         152.562         0.987764         152.562         0.155957         -117.42
60.57                   0.156661        -117.524         0.987651         152.494         0.987652         152.494         0.156661        -117.488
60.58                   0.157356        -117.591         0.987541         152.427         0.987542         152.427         0.157356        -117.555
60.59                    0.15804        -117.657         0.987432         152.361         0.987433         152.361          0.15804        -117.621
60.6                    0.158715        -117.723         0.987324         152.295         0.987324         152.295         0.158716        -117.687
60.61                   0.159382        -117.788         0.987217          152.23         0.987217          152.23         0.159382        -117.752
60.62                   0.160039        -117.853         0.987111         152.165         0.987111         152.165         0.160039        -117.817
60.63                   0.160689        -117.917         0.987005           152.1         0.987005           152.1         0.160689        -117.882
60.64                    0.16133        -117.981         0.986901         152.036         0.986901         152.036         0.161329        -117.946
60.65                   0.161963        -118.045         0.986797         151.973         0.986797         151.973         0.161963        -118.009
60.66                   0.162588        -118.108         0.986695          151.91         0.986694          151.91         0.162588        -118.072
60.67                   0.163206        -118.171         0.986593         151.847         0.986592         151.847         0.163206        -118.135
60.68                   0.163817        -118.233         0.986492         151.785         0.986491         151.785         0.163816        -118.197
60.69                    0.16442        -118.295         0.986392         151.723         0.986391         151.723          0.16442        -118.259
60.7                    0.165017        -118.356         0.986292         151.661         0.986291         151.661         0.165017        -118.321
60.71                   0.165608        -118.417         0.986193           151.6         0.986192           151.6         0.165607        -118.382
60.72                   0.166191        -118.478         0.986095         151.539         0.986094         151.539         0.166191        -118.443
60.73                   0.166769        -118.539         0.985998         151.479         0.985996         151.479         0.166769        -118.503
60.74                   0.167341        -118.599         0.985901         151.419           0.9859         151.419         0.167341        -118.564
60.75                   0.167907        -118.659         0.985805         151.359         0.985803         151.359         0.167906        -118.623
60.76                   0.168467        -118.718          0.98571         151.299         0.985708         151.299         0.168466        -118.683
60.77                   0.169021        -118.778         0.985615          151.24         0.985613          151.24         0.169021        -118.742
60.78                    0.16957        -118.837         0.985521         151.181         0.985519         151.181          0.16957        -118.801
60.79                   0.170114        -118.895         0.985427         151.122         0.985425         151.122         0.170114         -118.86
60.8                    0.170653        -118.954         0.985334         151.064         0.985332         151.064         0.170653        -118.919
60.81                   0.171187        -119.012         0.985242         151.005         0.985239         151.005         0.171187        -118.977
60.82                   0.171716         -119.07          0.98515         150.947         0.985147         150.948         0.171716        -119.035
60.83                    0.17224        -119.128         0.985058          150.89         0.985056          150.89          0.17224        -119.092
60.84                    0.17276        -119.185         0.984967         150.832         0.984965         150.832          0.17276         -119.15
60.85                   0.173275        -119.243         0.984877         150.775         0.984874         150.775         0.173275        -119.207
60.86                   0.173786          -119.3         0.984787         150.718         0.984784         150.718         0.173786        -119.264
60.87                   0.174293        -119.356         0.984697         150.661         0.984695         150.661         0.174293        -119.321
60.88                   0.174796        -119.413         0.984608         150.605         0.984606         150.605         0.174795        -119.377
60.89                   0.175294        -119.469          0.98452         150.548         0.984517         150.548         0.175294        -119.434
60.9                    0.175789        -119.526         0.984432         150.492         0.984429         150.492         0.175788         -119.49
60.91                    0.17628        -119.582         0.984344         150.436         0.984341         150.436         0.176279        -119.546
60.92                   0.176767        -119.638         0.984257          150.38         0.984254          150.38         0.176766        -119.602
60.93                    0.17725        -119.693          0.98417         150.324         0.984167         150.325          0.17725        -119.657
60.94                    0.17773        -119.749         0.984083         150.269          0.98408         150.269          0.17773        -119.713
60.95                   0.178207        -119.804         0.983997         150.214         0.983994         150.214         0.178206        -119.768
60.96                    0.17868        -119.859         0.983911         150.158         0.983909         150.159         0.178679        -119.823
60.97                    0.17915        -119.914         0.983826         150.103         0.983823         150.103         0.179149        -119.878
60.98                   0.179616        -119.969         0.983741         150.048         0.983738         150.049         0.179615        -119.933
60.99                    0.18008        -120.024         0.983656         149.994         0.983653         149.994         0.180079        -119.988
61                       0.18054        -120.079         0.983572         149.939         0.983569         149.939         0.180539        -120.042
61.01                   0.180997        -120.133         0.983488         149.885         0.983485         149.885         0.180997        -120.097
61.02                   0.181452        -120.187         0.983404          149.83         0.983401         149.831         0.181451        -120.151
61.03                   0.181903        -120.242          0.98332         149.776         0.983318         149.776         0.181902        -120.205
61.04                   0.182352        -120.296         0.983237         149.722         0.983235         149.722         0.182351        -120.259
61.05                   0.182798         -120.35         0.983155         149.668         0.983152         149.668         0.182797        -120.313
61.06                   0.183241        -120.404         0.983072         149.614         0.983069         149.614         0.183241        -120.367
61.07                   0.183682        -120.457          0.98299          149.56         0.982987         149.561         0.183681        -120.421
61.08                    0.18412        -120.511         0.982908         149.507         0.982905         149.507         0.184119        -120.475
61.09                   0.184556        -120.565         0.982826         149.453         0.982823         149.453         0.184555        -120.528
61.1                    0.184989        -120.618         0.982744           149.4         0.982742           149.4         0.184988        -120.581
61.11                    0.18542        -120.672         0.982663         149.346         0.982661         149.347         0.185419        -120.635
61.12                   0.185848        -120.725         0.982582         149.293          0.98258         149.293         0.185847        -120.688
61.13                   0.186274        -120.778         0.982502          149.24         0.982499          149.24         0.186273        -120.741
61.14                   0.186698        -120.831         0.982421         149.187         0.982419         149.187         0.186697        -120.794
61.15                    0.18712        -120.885         0.982341         149.134         0.982338         149.134         0.187119        -120.847
61.16                   0.187539        -120.938         0.982261         149.081         0.982258         149.081         0.187539          -120.9
61.17                   0.187957        -120.991         0.982181         149.028         0.982179         149.028         0.187956        -120.953
61.18                   0.188372        -121.043         0.982101         148.975         0.982099         148.975         0.188371        -121.006
61.19                   0.188785        -121.096         0.982022         148.922          0.98202         148.922         0.188785        -121.059
61.2                    0.189197        -121.149         0.981943         148.869         0.981941          148.87         0.189196        -121.111
61.21                   0.189606        -121.202         0.981864         148.817         0.981862         148.817         0.189605        -121.164
61.22                   0.190013        -121.255         0.981785         148.764         0.981783         148.764         0.190013        -121.217
61.23                   0.190419        -121.307         0.981706         148.712         0.981704         148.712         0.190418        -121.269
61.24                   0.190822         -121.36         0.981628         148.659         0.981626         148.659         0.190822        -121.322
61.25                   0.191224        -121.412         0.981549         148.606         0.981548         148.607         0.191224        -121.374
61.26                   0.191624        -121.465         0.981471         148.554          0.98147         148.554         0.191624        -121.427
61.27                   0.192023        -121.518         0.981393         148.502         0.981392         148.502         0.192022        -121.479
61.28                   0.192419         -121.57         0.981316         148.449         0.981314         148.449         0.192419        -121.531
61.29                   0.192814        -121.623         0.981238         148.397         0.981236         148.397         0.192814        -121.584
61.3                    0.193207        -121.675         0.981161         148.344         0.981159         148.344         0.193207        -121.636
